(1604665770.960915) can0 202#9019F50000000000
(1604665770.961392) can0 0C0#0113C01384161332
(1604665770.961949) can0 201#90E70B0000000000
(1604665770.962059) can0 4EC#0215004618280000
(1604665770.962443) can0 0C0#00013B019B01DF04
(1604665770.962913) can0 202#9019F50000000000
(1604665770.963182) can0 4ED#007BFFF6FF9C0000
(1604665770.963397) can0 0D0#15002B0036000B6B
(1604665770.963945) can0 201#90E70B0000000000
(1604665770.964398) can0 0D0#080B51001F00006B
(1604665770.964917) can0 202#9019F50000000000
(1604665770.965484) can0 0D0#07087F2300000000
(1604665770.965949) can0 201#90E70B0000000000
(1604665770.966463) can0 0D0#0600270015B8006B
(1604665770.966548) can0 4EC#01BD014517BD0000
(1604665770.966908) can0 202#9019F50000000000
(1604665770.967681) can0 4ED#008DFFF5FF970000
(1604665770.967946) can0 201#90E70B0000000000
(1604665770.968918) can0 202#9019F50000000000
(1604665770.969952) can0 201#90E70B0000000000
(1604665770.970919) can0 202#9019F50000000000
(1604665770.971037) can0 4EC#01A201CD17750000
(1604665770.971952) can0 201#90E70B0000000000
(1604665770.972173) can0 4ED#0072FFF7FF950000
(1604665770.972845) can0 182#4AD55102
(1604665770.972963) can0 202#9019F50000000000
(1604665770.973951) can0 201#90E70B0000000000
(1604665770.974922) can0 202#9019F50000000000
(1604665770.975440) can0 4EC#0134026816FD0000
(1604665770.975951) can0 201#90E70B0000000000
(1604665770.976656) can0 4ED#007AFFF7FFA60000
(1604665770.976909) can0 202#9019F50000000000
(1604665770.977944) can0 201#90E70B0000000000
(1604665770.978910) can0 202#9019F50000000000
(1604665770.979916) can0 4EC#00B4032A16570000
(1604665770.980037) can0 201#90E70B0000000000
(1604665770.980398) can0 0C0#0211350000000000
(1604665770.980835) can0 0B0#011F400500000000
(1604665770.980908) can0 182#A85EDF07
(1604665770.981039) can0 202#9019F50000000000
(1604665770.981161) can0 4ED#00870009FFAB0000
(1604665770.981419) can0 0C0#0113AB13E415E032
(1604665770.981884) can0 0B0#0200130588130088
(1604665770.982011) can0 201#90E70B0000000000
(1604665770.982433) can0 0C0#0000EB0152012A04
(1604665770.982916) can0 202#9019F50000000000
(1604665770.983564) can0 0D0#15009F0099000A6B
(1604665770.983757) can0 181#A8EE1C07
(1604665770.983832) can0 0AA#0500A20006
(1604665770.983953) can0 0AA#013C40C290418C2B
(1604665770.984077) can0 201#90E70B0000000000
(1604665770.984388) can0 4EC#0034032716090000
(1604665770.984510) can0 0D0#080B51001F00006B
(1604665770.984923) can0 202#9019F50000000000
(1604665770.985401) can0 0D0#07086BA900000000
(1604665770.985599) can0 4ED#007D000AFFA70000
(1604665770.985951) can0 201#90E70B0000000000
(1604665770.986427) can0 0D0#06002700158E006B
(1604665770.986925) can0 202#9019F50000000000
(1604665770.987954) can0 201#90E70B0000000000
(1604665770.988882) can0 4EC#000E02D115C40000
(1604665770.989021) can0 202#9019F50000000000
(1604665770.989951) can0 201#90E70B0000000000
(1604665770.990081) can0 4ED#007E0012FF910000
(1604665770.990909) can0 202#9019F50000000000
(1604665770.991945) can0 201#90E70B0000000000
(1604665770.992908) can0 202#9019F50000000000
(1604665770.993343) can0 4EC#FFD00283158E0000
(1604665770.993947) can0 201#90E70B0000000000
(1604665770.994555) can0 4ED#0060000CFF9F0000
(1604665770.994909) can0 202#9019F50000000000
(1604665770.995944) can0 201#90E70B0000000000
(1604665770.996912) can0 202#9019F50000000000
(1604665770.997814) can0 4EC#FF9E0117157B0000
(1604665770.997949) can0 201#90E70B0000000000
(1604665770.998938) can0 202#9019F50000000000
(1604665770.999012) can0 4ED#00820005FF9A0000
(1604665770.999944) can0 201#90E70B0000000000
(1604665771.000401) can0 0C0#02108C0000000000
(1604665771.000915) can0 202#9019F50000000000
(1604665771.001652) can0 0C0#01137A13E315B932
(1604665771.001945) can0 201#90E70B0000000000
(1604665771.002299) can0 4EC#FF87001A154F0000
(1604665771.002429) can0 0C0#00017801DF017E04
(1604665771.002911) can0 202#9019F50000000000
(1604665771.003397) can0 0D0#150102010D000B6B
(1604665771.003526) can0 4ED#00880005FF860000
(1604665771.003955) can0 201#90E70B0000000000
(1604665771.004396) can0 0D0#080B51001F00006B
(1604665771.004921) can0 202#9019F50000000000
(1604665771.005396) can0 0D0#070871A700000000
(1604665771.005891) can0 0B0#011E400500000000
(1604665771.006008) can0 201#90E70B0000000000
(1604665771.006466) can0 0D0#06002700159D006B
(1604665771.006793) can0 4EC#FED1FEA4151C0000
(1604665771.006910) can0 0B0#0200130588130088
(1604665771.007041) can0 202#9019F50000000000
(1604665771.007949) can0 201#90850B0000000000
(1604665771.008067) can0 4ED#006D000CFF970000
(1604665771.008914) can0 202#907BF50000000000
(1604665771.009947) can0 201#90850B0000000000
(1604665771.010915) can0 202#907BF50000000000
(1604665771.011284) can0 4EC#FE7AFE0F15190000
(1604665771.011949) can0 201#90850B0000000000
(1604665771.012495) can0 4ED#00760007FFAF0000
(1604665771.012911) can0 202#907BF50000000000
(1604665771.013961) can0 201#90850B0000000000
(1604665771.014916) can0 202#907BF50000000000
(1604665771.015738) can0 4EC#FE88FE9514FD0000
(1604665771.015919) can0 201#90850B0000000000
(1604665771.016887) can0 202#907BF50000000000
(1604665771.017004) can0 4ED#009A0006FF8F0000
(1604665771.017919) can0 201#90850B0000000000
(1604665771.018888) can0 202#907BF50000000000
(1604665771.019920) can0 201#90850B0000000000
(1604665771.020215) can0 4EC#FE50FDD614E80000
(1604665771.020445) can0 0C0#0210B30000000000
(1604665771.020886) can0 202#907BF50000000000
(1604665771.021364) can0 0C0#01137613A115BB32
(1604665771.021485) can0 4ED#007D0008FF950000
(1604665771.021645) can0 181#4A675402
(1604665771.021920) can0 201#90850B0000000000
(1604665771.022447) can0 0C0#0000DA016C01DF04
(1604665771.022731) can0 182#49D32E01
(1604665771.022885) can0 202#907BF50000000000
(1604665771.023366) can0 0D0#1501760170000A6B
(1604665771.023851) can0 0AA#05009B0006
(1604665771.023971) can0 0AA#013C4D6390A18C76
(1604665771.024087) can0 201#90850B0000000000
(1604665771.024365) can0 0D0#080B51001F00006B
(1604665771.024648) can0 181#49FA2D01
(1604665771.024734) can0 182#EBD03003
(1604665771.024877) can0 4EC#FE12FDD514C90000
(1604665771.025011) can0 202#907BF50000000000
(1604665771.025396) can0 0D0#0708672B00000000
(1604665771.025931) can0 4ED#006A0001FFAA0000
(1604665771.026048) can0 201#90850B0000000000
(1604665771.026459) can0 0D0#060027001582006B
(1604665771.026670) can0 181#EBBE3003
(1604665771.026736) can0 182#8A7FFA04
(1604665771.026909) can0 202#907BF50000000000
(1604665771.027945) can0 201#90850B0000000000
(1604665771.028672) can0 181#8A0E0504
(1604665771.028740) can0 182#F65E0105
(1604665771.028911) can0 202#907BF50000000000
(1604665771.029194) can0 4EC#FE15FE8D14DD0000
(1604665771.029945) can0 201#90850B0000000000
(1604665771.030440) can0 4ED#00850003FFA60000
(1604665771.030665) can0 181#F6690105
(1604665771.030831) can0 0B0#011F400500000000
(1604665771.030897) can0 182#A078F506
(1604665771.031016) can0 182#A8C1DF07
(1604665771.031125) can0 202#907BF50000000000
(1604665771.031887) can0 0B0#0200110594130088
(1604665771.032010) can0 201#90E70B0000000000
(1604665771.032662) can0 181#A0CF0B06
(1604665771.032819) can0 182#5FBEFF08
(1604665771.032934) can0 202#9019F50000000000
(1604665771.033671) can0 4EC#FE59FEA615170000
(1604665771.033738) can0 181#A8371D07
(1604665771.033947) can0 201#90E70B0000000000
(1604665771.034886) can0 4ED#00830006FFAD0000
(1604665771.035019) can0 202#9019F50000000000
(1604665771.035659) can0 181#5F4F0008
(1604665771.035942) can0 201#90E70B0000000000
(1604665771.036916) can0 202#9019F50000000000
(1604665771.037946) can0 201#90E70B0000000000
(1604665771.038166) can0 4EC#FE56FE8C15320000
(1604665771.038912) can0 202#9019F50000000000
(1604665771.039382) can0 4ED#007B0003FFA40000
(1604665771.039944) can0 201#90E70B0000000000
(1604665771.040398) can0 0C0#020FFD0000000000
(1604665771.040912) can0 202#9019F50000000000
(1604665771.041389) can0 0C0#01135C137215B032
(1604665771.041945) can0 201#90E70B0000000000
(1604665771.042430) can0 0C0#00013D01AD017404
(1604665771.042675) can0 4EC#FE94FEEE15640000
(1604665771.042910) can0 202#9019F50000000000
(1604665771.043394) can0 0D0#1501D801E4000B6B
(1604665771.043859) can0 4ED#0090000EFF860000
(1604665771.043975) can0 201#90E70B0000000000
(1604665771.044397) can0 0D0#080B51001F00006B
(1604665771.044910) can0 202#9019F50000000000
(1604665771.045391) can0 0D0#0708D18700000000
(1604665771.045944) can0 201#90E70B0000000000
(1604665771.046428) can0 0D0#060029001693006B
(1604665771.046914) can0 202#9019F50000000000
(1604665771.047130) can0 4EC#FECFFF7E15A50000
(1604665771.047947) can0 201#90E70B0000000000
(1604665771.048344) can0 4ED#00800008FFA10000
(1604665771.048910) can0 202#9019F50000000000
(1604665771.049948) can0 201#90E70B0000000000
(1604665771.050914) can0 202#9019F50000000000
(1604665771.051611) can0 4EC#FED60051166B0000
(1604665771.051942) can0 201#90E70B0000000000
(1604665771.052820) can0 4ED#007E0005FF920000
(1604665771.052940) can0 202#9019F50000000000
(1604665771.053945) can0 201#90E70B0000000000
(1604665771.054744) can0 0FF#94007C8400000000
(1604665771.054909) can0 202#9019F50000000000
(1604665771.055890) can0 0B0#011F400500000000
(1604665771.056008) can0 201#90E70B0000000000
(1604665771.056130) can0 4EC#FF6F003016B50000
(1604665771.056828) can0 0B0#0200130588130088
(1604665771.056949) can0 202#9019F50000000000
(1604665771.057287) can0 4ED#006D0007FFA30000
(1604665771.057948) can0 201#90E70B0000000000
(1604665771.058914) can0 202#9019F50000000000
(1604665771.059947) can0 201#90E70B0000000000
(1604665771.060401) can0 0C0#020FA20000000000
(1604665771.060555) can0 4EC#0000000216E50000
(1604665771.060913) can0 202#9019F50000000000
(1604665771.061418) can0 0C0#011360139115BE32
(1604665771.061770) can0 4ED#00720003FF9D0000
(1604665771.061943) can0 201#90E70B0000000000
(1604665771.062427) can0 0C0#0000E6016D01AA04
(1604665771.062916) can0 202#9019F50000000000
(1604665771.063388) can0 0D0#15024D0259000B6B
(1604665771.063947) can0 201#90E70B0000000000
(1604665771.064394) can0 0D0#080B51001F00006B
(1604665771.064912) can0 202#9019F50000000000
(1604665771.065051) can0 4EC#FFECFFA2170A0000
(1604665771.065394) can0 0D0#0708C10C00000000
(1604665771.065945) can0 201#90E70B0000000000
(1604665771.066232) can0 4ED#00870005FF960000
(1604665771.066422) can0 0D0#060028001601006B
(1604665771.066910) can0 202#9019F50000000000
(1604665771.067956) can0 201#90E70B0000000000
(1604665771.068911) can0 202#9019F50000000000
(1604665771.069496) can0 4EC#FFBFFEF117650000
(1604665771.069951) can0 201#90E70B0000000000
(1604665771.070709) can0 4ED#00810011FF930000
(1604665771.070911) can0 202#9019F50000000000
(1604665771.071949) can0 201#90E70B0000000000
(1604665771.072688) can0 182#4ADC5102
(1604665771.072915) can0 202#9019F50000000000
(1604665771.073946) can0 201#90E70B0000000000
(1604665771.074065) can0 4EC#0023FE7217CA0000
(1604665771.074926) can0 202#9019F50000000000
(1604665771.075197) can0 4ED#0089000AFF9B0000
(1604665771.075946) can0 201#90E70B0000000000
(1604665771.076914) can0 202#9019F50000000000
(1604665771.077947) can0 201#90E70B0000000000
(1604665771.078468) can0 4EC#007FFE1317FE0000
(1604665771.078919) can0 202#9019F50000000000
(1604665771.079673) can0 4ED#00880003FF8B0000
(1604665771.079946) can0 201#90E70B0000000000
(1604665771.080398) can0 0C0#020FFD0000000000
(1604665771.080673) can0 182#A87CDF07
(1604665771.080830) can0 0B0#011E410500000000
(1604665771.080951) can0 202#9019F50000000000
(1604665771.081418) can0 0C0#01137D13A315DB32
(1604665771.081786) can0 0AA#0A0A130B6607B4
(1604665771.081900) can0 0B0#0200130588130088
(1604665771.082023) can0 201#90850B0000000000
(1604665771.082426) can0 0C0#00012A0191011804
(1604665771.082914) can0 202#907BF50000000000
(1604665771.083037) can0 4EC#006AFD9017F50000
(1604665771.083392) can0 0D0#15004F0049000B6B
(1604665771.083579) can0 181#A88F1D07
(1604665771.083947) can0 201#90850B0000000000
(1604665771.084155) can0 4ED#007B0009FF980000
(1604665771.084392) can0 0D0#080B52002000006B
(1604665771.084912) can0 202#907BF50000000000
(1604665771.085393) can0 0D0#07089B9900000000
(1604665771.085948) can0 201#90850B0000000000
(1604665771.086424) can0 0D0#060028001609006B
(1604665771.086912) can0 202#907BF50000000000
(1604665771.087420) can0 4EC#007BFD59180A0000
(1604665771.087947) can0 201#90850B0000000000
(1604665771.088627) can0 4ED#00640009FFA70000
(1604665771.088912) can0 202#907BF50000000000
(1604665771.089947) can0 201#90850B0000000000
(1604665771.090914) can0 202#907BF50000000000
(1604665771.091894) can0 4EC#009CFD8D18100000
(1604665771.092008) can0 201#90850B0000000000
(1604665771.092914) can0 202#907BF50000000000
(1604665771.093037) can0 0AA#0500A20006
(1604665771.093149) can0 0AA#013C5D9D90848CD7
(1604665771.093272) can0 4ED#00700002FFA70000
(1604665771.093945) can0 201#90850B0000000000
(1604665771.094916) can0 202#907BF50000000000
(1604665771.095948) can0 201#90850B0000000000
(1604665771.096370) can0 4EC#0071FDF418110000
(1604665771.096911) can0 202#907BF50000000000
(1604665771.097574) can0 4ED#007B0001FFAB0000
(1604665771.097945) can0 201#90850B0000000000
(1604665771.098940) can0 202#907BF50000000000
(1604665771.099947) can0 201#90850B0000000000
(1604665771.100400) can0 0C0#020FFD0000000000
(1604665771.100836) can0 4EC#0038FE4A18110000
(1604665771.100956) can0 202#907BF50000000000
(1604665771.101419) can0 0C0#01139C1373160132
(1604665771.101947) can0 201#90850B0000000000
(1604665771.102068) can0 4ED#0080FFF8FFA90000
(1604665771.102431) can0 0C0#000115016B01DF04
(1604665771.102913) can0 202#907BF50000000000
(1604665771.103396) can0 0D0#1500B300BE000A6B
(1604665771.103945) can0 201#90850B0000000000
(1604665771.104413) can0 0D0#080B52002000006B
(1604665771.104913) can0 202#907BF50000000000
(1604665771.105061) can0 0AA#05009E0006
(1604665771.105191) can0 0AA#013C595890C88CB8
(1604665771.105307) can0 4EC#009AFEE117E50000
(1604665771.105427) can0 0D0#070868AA00000000
(1604665771.105896) can0 0B0#011F410500000000
(1604665771.106016) can0 201#90850B0000000000
(1604665771.106421) can0 0D0#060027001586006B
(1604665771.106492) can0 4ED#0072FFF8FFA90000
(1604665771.106831) can0 0B0#0200130588130088
(1604665771.106949) can0 202#907BF50000000000
(1604665771.107948) can0 201#90E70B0000000000
(1604665771.108912) can0 202#9019F50000000000
(1604665771.109784) can0 4EC#0082004017970000
(1604665771.109946) can0 201#90E70B0000000000
(1604665771.110917) can0 202#9019F50000000000
(1604665771.111035) can0 4ED#007BFFFDFFAF0000
(1604665771.111949) can0 201#90E70B0000000000
(1604665771.112914) can0 202#9019F50000000000
(1604665771.113947) can0 201#90E70B0000000000
(1604665771.114250) can0 4EC#002900AE175B0000
(1604665771.114912) can0 202#9019F50000000000
(1604665771.115467) can0 4ED#006AFFFDFFB20000
(1604665771.115947) can0 201#90E70B0000000000
(1604665771.116915) can0 202#9019F50000000000
(1604665771.117948) can0 201#90E70B0000000000
(1604665771.118718) can0 4EC#FFBF00BF17460000
(1604665771.118920) can0 202#9019F50000000000
(1604665771.119926) can0 4ED#006E0004FFAA0000
(1604665771.120058) can0 201#90E70B0000000000
(1604665771.120397) can0 0C0#020FA20000000000
(1604665771.120912) can0 202#9019F50000000000
(1604665771.121397) can0 0C0#0113971393160332
(1604665771.121520) can0 181#4A6E5402
(1604665771.121947) can0 201#90E70B0000000000
(1604665771.122422) can0 0C0#00011D0158014C04
(1604665771.122600) can0 182#49D32E01
(1604665771.122913) can0 202#9019F50000000000
(1604665771.123204) can0 4EC#001100DE17450000
(1604665771.123388) can0 0D0#1501270122000B6B
(1604665771.123947) can0 201#90E70B0000000000
(1604665771.124395) can0 0D0#080B52002000006B
(1604665771.124518) can0 4ED#007A0008FFA40000
(1604665771.124583) can0 181#49F92D01
(1604665771.124694) can0 182#EB0F3103
(1604665771.124914) can0 202#9019F50000000000
(1604665771.125393) can0 0D0#07088E1D00000000
(1604665771.125949) can0 201#90E70B0000000000
(1604665771.126425) can0 0D0#0600270015E6006B
(1604665771.126491) can0 181#EB703003
(1604665771.126600) can0 182#8A8CFA04
(1604665771.126917) can0 202#9019F50000000000
(1604665771.127689) can0 4EC#FFD000B217350000
(1604665771.127949) can0 201#90E70B0000000000
(1604665771.128502) can0 181#8ACB0404
(1604665771.128567) can0 182#F66B0105
(1604665771.128887) can0 4ED#00780003FF980000
(1604665771.129035) can0 202#9019F50000000000
(1604665771.129948) can0 201#90E70B0000000000
(1604665771.130503) can0 181#F66E0105
(1604665771.130569) can0 182#A026F506
(1604665771.130682) can0 182#A880DF07
(1604665771.130832) can0 0B0#011F400500000000
(1604665771.130961) can0 202#9019F50000000000
(1604665771.131882) can0 0B0#0200130588130088
(1604665771.132003) can0 201#90E70B0000000000
(1604665771.132145) can0 4EC#FFD8006117200000
(1604665771.132493) can0 181#A0CF0B06
(1604665771.132646) can0 182#5FBDFF08
(1604665771.132914) can0 202#9019F50000000000
(1604665771.133366) can0 4ED#00650007FF9A0000
(1604665771.133502) can0 181#A8511D07
(1604665771.133948) can0 201#90E70B0000000000
(1604665771.134915) can0 202#9019F50000000000
(1604665771.135517) can0 181#5F540008
(1604665771.135949) can0 201#90E70B0000000000
(1604665771.136620) can0 4EC#0008FFCA17180000
(1604665771.136911) can0 202#9019F50000000000
(1604665771.137830) can0 4ED#00800003FFA30000
(1604665771.137954) can0 201#90E70B0000000000
(1604665771.138940) can0 202#9019F50000000000
(1604665771.139949) can0 201#90E70B0000000000
(1604665771.140399) can0 0C0#020FA20000000000
(1604665771.140912) can0 202#9019F50000000000
(1604665771.141089) can0 4EC#FFB9FEFE171E0000
(1604665771.141387) can0 0C0#01138613CB15EC32
(1604665771.141945) can0 201#90E70B0000000000
(1604665771.142297) can0 4ED#007A0009FFA60000
(1604665771.142428) can0 0C0#0000E20183014204
(1604665771.142913) can0 202#9019F50000000000
(1604665771.143395) can0 0D0#15018B0196000A6B
(1604665771.143945) can0 201#90E70B0000000000
(1604665771.144151) can0 0AA#05009F0006
(1604665771.144263) can0 0AA#013C596A90AD8C8A
(1604665771.144398) can0 0D0#080B52002000006B
(1604665771.144915) can0 202#9019F50000000000
(1604665771.145396) can0 0D0#07085FAD00000000
(1604665771.145567) can0 4EC#FFA5FE7A17190000
(1604665771.145947) can0 201#90E70B0000000000
(1604665771.146450) can0 0D0#06002700156F006B
(1604665771.146782) can0 4ED#00710005FFB70000
(1604665771.146919) can0 202#9019F50000000000
(1604665771.147958) can0 201#90E70B0000000000
(1604665771.148920) can0 202#9019F50000000000
(1604665771.149956) can0 201#90E70B0000000000
(1604665771.150074) can0 4EC#FFC4FE8516FC0000
(1604665771.150923) can0 202#9019F50000000000
(1604665771.151278) can0 4ED#007C0002FFAD0000
(1604665771.151957) can0 201#90E70B0000000000
(1604665771.152921) can0 202#9019F50000000000
(1604665771.153955) can0 201#90E70B0000000000
(1604665771.154520) can0 4EC#FFC9FEAB16D90000
(1604665771.154912) can0 202#9019F50000000000
(1604665771.155744) can0 4ED#00610006FFB30000
(1604665771.155904) can0 0B0#011F410500000000
(1604665771.156022) can0 201#90E70B0000000000
(1604665771.156831) can0 0B0#0200130588130088
(1604665771.156950) can0 202#9019F50000000000
(1604665771.157949) can0 201#90E70B0000000000
(1604665771.158920) can0 202#9019F50000000000
(1604665771.159035) can0 4EC#FFB2FE6816D90000
(1604665771.159954) can0 201#90E70B0000000000
(1604665771.160225) can0 4ED#00670002FFB40000
(1604665771.160396) can0 0C0#020FFD0000000000
(1604665771.160915) can0 202#9019F50000000000
(1604665771.161399) can0 0C0#01138C138315E832
(1604665771.161950) can0 201#90E70B0000000000
(1604665771.162433) can0 0C0#0000E701AF019504
(1604665771.162914) can0 202#9019F50000000000
(1604665771.163396) can0 0D0#150200020B000B6B
(1604665771.163517) can0 4EC#FFD4FE6817120000
(1604665771.163948) can0 201#90E70B0000000000
(1604665771.164417) can0 0D0#080B52002000006B
(1604665771.164692) can0 4ED#00620000FFB20000
(1604665771.164912) can0 202#9019F50000000000
(1604665771.165396) can0 0D0#0708852100000000
(1604665771.165959) can0 201#90E70B0000000000
(1604665771.166426) can0 0D0#0600270015A1006B
(1604665771.166916) can0 202#9019F50000000000
(1604665771.167949) can0 201#90E70B0000000000
(1604665771.168064) can0 4EC#FFF5FEC7172A0000
(1604665771.168939) can0 202#9019F50000000000
(1604665771.169180) can0 4ED#00710002FFB00000
(1604665771.169949) can0 201#90E70B0000000000
(1604665771.170917) can0 202#9019F50000000000
(1604665771.171949) can0 201#90E70B0000000000
(1604665771.172443) can0 4EC#0034FEFD174A0000
(1604665771.172530) can0 182#4ADE5102
(1604665771.172917) can0 202#9019F50000000000
(1604665771.173652) can0 4ED#0077FFFEFFAF0000
(1604665771.173950) can0 201#90E70B0000000000
(1604665771.174916) can0 202#9019F50000000000
(1604665771.175987) can0 201#90E70B0000000000
(1604665771.176919) can0 202#9019F50000000000
(1604665771.177038) can0 4EC#0039FF7417460000
(1604665771.177956) can0 201#90E70B0000000000
(1604665771.178136) can0 4ED#0073FFF9FFA90000
(1604665771.178917) can0 202#9019F50000000000
(1604665771.179952) can0 201#90E70B0000000000
(1604665771.180403) can0 0C0#020FD60000000000
(1604665771.180521) can0 182#A869DF07
(1604665771.180831) can0 0B0#011F400500000000
(1604665771.180956) can0 202#9019F50000000000
(1604665771.181395) can0 4EC#001CFFDA17230000
(1604665771.181514) can0 0C0#01138C137F15DF32
(1604665771.181892) can0 0B0#0200130588130088
(1604665771.182081) can0 201#90E70B0000000000
(1604665771.182513) can0 0C0#0000C80147016104
(1604665771.182639) can0 4ED#0077FFFCFFA20000
(1604665771.182915) can0 202#9019F50000000000
(1604665771.183404) can0 0D0#150000026F000B6B
(1604665771.183472) can0 181#A8D81D07
(1604665771.183955) can0 201#90E70B0000000000
(1604665771.184244) can0 0AA#0500A40006
(1604665771.184361) can0 0AA#013C512190A58BCD
(1604665771.184475) can0 0D0#080B54002100006B
(1604665771.184914) can0 202#9019F50000000000
(1604665771.185391) can0 0D0#07085FAD00000000
(1604665771.185925) can0 4EC#0017FFEC17380000
(1604665771.185995) can0 201#90E70B0000000000
(1604665771.186447) can0 0D0#06002700156F006B
(1604665771.186917) can0 202#9019F50000000000
(1604665771.187073) can0 4ED#006EFFFFFFB70000
(1604665771.187930) can0 201#90E70B0000000000
(1604665771.188890) can0 202#9019F50000000000
(1604665771.189924) can0 201#90E70B0000000000
(1604665771.190305) can0 4EC#002E004517350000
(1604665771.190895) can0 202#9019F50000000000
(1604665771.191515) can0 4ED#00790000FFA70000
(1604665771.191925) can0 201#90E70B0000000000
(1604665771.192890) can0 202#9019F50000000000
(1604665771.193925) can0 201#90E70B0000000000
(1604665771.194798) can0 4EC#0028009116FC0000
(1604665771.194920) can0 202#9019F50000000000
(1604665771.195925) can0 201#90E70B0000000000
(1604665771.196047) can0 4ED#007AFFFFFFA70000
(1604665771.196890) can0 202#9019F50000000000
(1604665771.197923) can0 201#90E70B0000000000
(1604665771.198893) can0 202#9019F50000000000
(1604665771.199265) can0 4EC#FFF5009916BE0000
(1604665771.199924) can0 201#90E70B0000000000
(1604665771.200474) can0 4ED#007E0008FF920000
(1604665771.200598) can0 0C0#020FFD0000000000
(1604665771.200891) can0 202#9019F50000000000
(1604665771.201371) can0 0C0#01139413AC15EA32
(1604665771.201924) can0 201#90E70B0000000000
(1604665771.202396) can0 0C0#0000FF017401CA04
(1604665771.202891) can0 202#9019F50000000000
(1604665771.203369) can0 0D0#150063006E000B6B
(1604665771.203738) can0 4EC#FFAE007016B50000
(1604665771.203923) can0 201#90E70B0000000000
(1604665771.204370) can0 0D0#080B54002100006B
(1604665771.204889) can0 202#9019F50000000000
(1604665771.205013) can0 4ED#007D0003FF900000
(1604665771.205372) can0 0D0#0708822200000000
(1604665771.205868) can0 0B0#011F400500000000
(1604665771.205987) can0 201#90E70B0000000000
(1604665771.206595) can0 0D0#06002700159D006B
(1604665771.206716) can0 0FF#94007D8800000000
(1604665771.206835) can0 0B0#0200130588130088
(1604665771.206959) can0 202#9019F50000000000
(1604665771.207926) can0 201#90E70B0000000000
(1604665771.208216) can0 4EC#FF88003016A40000
(1604665771.208889) can0 202#9019F50000000000
(1604665771.209426) can0 4ED#008B0009FF890000
(1604665771.209925) can0 201#90E70B0000000000
(1604665771.210894) can0 202#9019F50000000000
(1604665771.211927) can0 201#90E70B0000000000
(1604665771.212689) can0 4EC#FF830023169E0000
(1604665771.212892) can0 202#9019F50000000000
(1604665771.213900) can0 4ED#00970006FF890000
(1604665771.214021) can0 201#90E70B0000000000
(1604665771.214892) can0 202#9019F50000000000
(1604665771.215924) can0 201#90E70B0000000000
(1604665771.216901) can0 202#9019F50000000000
(1604665771.217171) can0 4EC#FF3C001415B60000
(1604665771.217925) can0 201#90E70B0000000000
(1604665771.218399) can0 4ED#008F0001FF8E0000
(1604665771.218893) can0 202#9019F50000000000
(1604665771.219925) can0 201#90E70B0000000000
(1604665771.220394) can0 0C0#020FE30000000000
(1604665771.220892) can0 202#9019F50000000000
(1604665771.221369) can0 0C0#01137413BB15DA32
(1604665771.221450) can0 181#4A6A5402
(1604665771.221640) can0 4EC#FF02004D16330000
(1604665771.221924) can0 201#90E70B0000000000
(1604665771.222385) can0 0C0#000119015E019604
(1604665771.222466) can0 182#49D32E01
(1604665771.222847) can0 4ED#00980008FF8F0000
(1604665771.222970) can0 202#9019F50000000000
(1604665771.223368) can0 0D0#1500D800D2000B6B
(1604665771.223925) can0 201#90E70B0000000000
(1604665771.224296) can0 0AA#0500A30006
(1604665771.224409) can0 0AA#013C3BA890538C31
(1604665771.224494) can0 181#49FA2D01
(1604665771.224580) can0 182#EB5A3003
(1604665771.224891) can0 202#9019F50000000000
(1604665771.225382) can0 0D0#0708732700000000
(1604665771.225926) can0 201#90E70B0000000000
(1604665771.226112) can0 4EC#FF09001A163F0000
(1604665771.226323) can0 181#EBCE3003
(1604665771.226442) can0 0D0#0600270015A1006B
(1604665771.226523) can0 182#8AB8FA04
(1604665771.226892) can0 202#9019F50000000000
(1604665771.227323) can0 4ED#00940011FF820000
(1604665771.227926) can0 201#90E70B0000000000
(1604665771.228319) can0 181#8ABA0404
(1604665771.228463) can0 182#F6610105
(1604665771.228891) can0 202#9019F50000000000
(1604665771.229926) can0 201#90E70B0000000000
(1604665771.230317) can0 181#F6940105
(1604665771.230414) can0 182#A026F506
(1604665771.230487) can0 182#A893DF07
(1604665771.230609) can0 4EC#FEC6FFC616450000
(1604665771.230809) can0 0B0#011F400500000000
(1604665771.230932) can0 202#9019F50000000000
(1604665771.231805) can0 4ED#007F000EFF8B0000
(1604665771.231920) can0 0B0#0200130588130088
(1604665771.232040) can0 201#90E70B0000000000
(1604665771.232316) can0 181#A0CF0B06
(1604665771.232406) can0 182#5FBBFF08
(1604665771.232907) can0 202#9019F50000000000
(1604665771.233312) can0 181#A84F1D07
(1604665771.233926) can0 201#90E70B0000000000
(1604665771.234894) can0 202#9019F50000000000
(1604665771.235064) can0 4EC#FE9EFFAA165A0000
(1604665771.235311) can0 181#5F4A0008
(1604665771.235926) can0 201#90E70B0000000000
(1604665771.236277) can0 4ED#008C0007FF870000
(1604665771.236893) can0 202#9019F50000000000
(1604665771.237927) can0 201#90E70B0000000000
(1604665771.238892) can0 202#9019F50000000000
(1604665771.239536) can0 4EC#FEEDFF8D16860000
(1604665771.239925) can0 201#90E70B0000000000
(1604665771.240391) can0 0C0#020FFD0000000000
(1604665771.240755) can0 4ED#0089000FFF860000
(1604665771.240890) can0 202#9019F50000000000
(1604665771.241370) can0 0C0#01136D13AB15CF32
(1604665771.241926) can0 201#90E70B0000000000
(1604665771.242394) can0 0C0#0000E0012F017D04
(1604665771.242896) can0 202#9019F50000000000
(1604665771.243371) can0 0D0#15013C0147000A6B
(1604665771.243924) can0 201#90E70B0000000000
(1604665771.244044) can0 4EC#FEDAFF9316BE0000
(1604665771.244368) can0 0D0#080B54002100006B
(1604665771.244894) can0 202#9019F50000000000
(1604665771.245239) can0 4ED#00870005FF9B0000
(1604665771.245371) can0 0D0#070862AC00000000
(1604665771.245926) can0 201#90E70B0000000000
(1604665771.246391) can0 0D0#060027001577006B
(1604665771.246892) can0 202#9019F50000000000
(1604665771.247937) can0 201#90E70B0000000000
(1604665771.248496) can0 4EC#FEE4FF6116CE0000
(1604665771.248891) can0 202#9019F50000000000
(1604665771.249706) can0 4ED#008A000BFF9D0000
(1604665771.249926) can0 201#90E70B0000000000
(1604665771.250893) can0 202#9019F50000000000
(1604665771.251926) can0 201#90E70B0000000000
(1604665771.252893) can0 202#9019F50000000000
(1604665771.253013) can0 4EC#FF40FF4D17000000
(1604665771.253926) can0 201#90E70B0000000000
(1604665771.254177) can0 4ED#0089000AFFAA0000
(1604665771.254892) can0 202#9019F50000000000
(1604665771.255867) can0 0B0#0121400500000000
(1604665771.255986) can0 201#90E70B0000000000
(1604665771.256804) can0 0B0#0200130588130088
(1604665771.256926) can0 202#9019F50000000000
(1604665771.257434) can0 4EC#FF6EFF1E17540000
(1604665771.257926) can0 201#90AB0C0000000000
(1604665771.258648) can0 4ED#00810005FF9B0000
(1604665771.258918) can0 202#9055F40000000000
(1604665771.259952) can0 201#90AB0C0000000000
(1604665771.260407) can0 0C0#020FF00000000000
(1604665771.260916) can0 202#9055F40000000000
(1604665771.261395) can0 0C0#011370139A15E032
(1604665771.261929) can0 4EC#FFCEFF62177E0000
(1604665771.262049) can0 201#90AB0C0000000000
(1604665771.262436) can0 0C0#0001330196018B04
(1604665771.262919) can0 202#9055F40000000000
(1604665771.263146) can0 4ED#00870001FF990000
(1604665771.263395) can0 0D0#1501B101BC000B6B
(1604665771.263950) can0 201#90AB0C0000000000
(1604665771.264393) can0 0D0#080B54002100006B
(1604665771.264917) can0 202#9055F40000000000
(1604665771.265395) can0 0D0#0708899F00000000
(1604665771.265951) can0 201#90AB0C0000000000
(1604665771.266425) can0 0D0#0600270015EA006B
(1604665771.266508) can0 4EC#FFD8FFB617B90000
(1604665771.266914) can0 202#9055F40000000000
(1604665771.267617) can0 4ED#006B0008FFA50000
(1604665771.267952) can0 201#90AB0C0000000000
(1604665771.268918) can0 202#9055F40000000000
(1604665771.269952) can0 201#90AB0C0000000000
(1604665771.270896) can0 4EC#0029FF4018010000
(1604665771.271009) can0 202#9055F40000000000
(1604665771.271953) can0 201#90AB0C0000000000
(1604665771.272085) can0 4ED#00700002FFA40000
(1604665771.272415) can0 182#4ADF5102
(1604665771.272919) can0 202#9055F40000000000
(1604665771.273951) can0 201#90AB0C0000000000
(1604665771.274919) can0 202#9055F40000000000
(1604665771.275355) can0 4EC#00ABFEF918770000
(1604665771.275951) can0 201#90AB0C0000000000
(1604665771.276567) can0 4ED#007D0006FF920000
(1604665771.276914) can0 202#9055F40000000000
(1604665771.277951) can0 201#90AB0C0000000000
(1604665771.278920) can0 202#9055F40000000000
(1604665771.279857) can0 4EC#00E5FE0018930000
(1604665771.279970) can0 201#90AB0C0000000000
(1604665771.280417) can0 0C0#020FE30000000000
(1604665771.280482) can0 182#A824DF07
(1604665771.280837) can0 0B0#01233E0500000000
(1604665771.280958) can0 202#9055F40000000000
(1604665771.281080) can0 4ED#00750001FF990000
(1604665771.281446) can0 0C0#01139013A415FB32
(1604665771.281896) can0 0B0#0200130588130088
(1604665771.282013) can0 201#90700D0000000000
(1604665771.282236) can0 0AA#0A0A140B6607BA
(1604665771.282428) can0 0C0#00011E0170015D04
(1604665771.282914) can0 202#9090F30000000000
(1604665771.283260) can0 181#A85F1D07
(1604665771.283429) can0 0D0#1502270222000B6B
(1604665771.283953) can0 201#90700D0000000000
(1604665771.284316) can0 4EC#008BFDF718740000
(1604665771.284466) can0 0D0#080B54002100006B
(1604665771.284916) can0 202#9090F30000000000
(1604665771.285399) can0 0D0#070883A100000000
(1604665771.285518) can0 4ED#007A0001FFAC0000
(1604665771.285955) can0 201#90700D0000000000
(1604665771.286479) can0 0D0#0600270015CB006B
(1604665771.286915) can0 202#9090F30000000000
(1604665771.287955) can0 201#90700D0000000000
(1604665771.288815) can0 4EC#00DBFE01187C0000
(1604665771.288928) can0 202#9090F30000000000
(1604665771.289957) can0 201#90700D0000000000
(1604665771.290076) can0 4ED#00810001FFBC0000
(1604665771.290917) can0 202#9090F30000000000
(1604665771.291955) can0 201#90700D0000000000
(1604665771.292919) can0 202#9090F30000000000
(1604665771.293286) can0 4EC#0112FE03188F0000
(1604665771.293488) can0 0AA#0500B40007
(1604665771.293608) can0 0AA#013C26C190818BD2
(1604665771.293950) can0 201#90700D0000000000
(1604665771.294502) can0 4ED#0070FFF9FFB20000
(1604665771.294914) can0 202#9090F30000000000
(1604665771.295954) can0 201#90700D0000000000
(1604665771.296917) can0 202#9090F30000000000
(1604665771.297777) can0 4EC#011AFE5C18920000
(1604665771.297951) can0 201#90700D0000000000
(1604665771.298925) can0 202#9090F30000000000
(1604665771.299028) can0 4ED#006EFFFCFFAA0000
(1604665771.299955) can0 201#90700D0000000000
(1604665771.300398) can0 0C0#0210240000000000
(1604665771.300915) can0 202#9090F30000000000
(1604665771.301401) can0 0C0#0113A11384160D32
(1604665771.301955) can0 201#90700D0000000000
(1604665771.302239) can0 4EC#0127FEA518920000
(1604665771.302430) can0 0C0#00016C0188017B04
(1604665771.302919) can0 202#9090F30000000000
(1604665771.303400) can0 0D0#1500180023000A6B
(1604665771.303518) can0 4ED#0061FFFCFFB60000
(1604665771.303955) can0 201#90700D0000000000
(1604665771.304396) can0 0D0#080B55002200006B
(1604665771.304915) can0 202#9090F30000000000
(1604665771.305402) can0 0D0#070886A000000000
(1604665771.305509) can0 0AA#0500BA0007
(1604665771.305629) can0 0AA#013C26C190818BD2
(1604665771.305894) can0 0B0#01253C0500000000
(1604665771.306013) can0 201#90700D0000000000
(1604665771.306425) can0 0D0#0600270015DB006B
(1604665771.306710) can0 4EC#010DFEED18660000
(1604665771.306850) can0 0B0#0200130588130088
(1604665771.306943) can0 202#9090F30000000000
(1604665771.307923) can0 4ED#0054FFFFFFBC0000
(1604665771.308043) can0 201#90350E0000000000
(1604665771.308925) can0 202#90CBF20000000000
(1604665771.309956) can0 201#90350E0000000000
(1604665771.310917) can0 202#90CBF20000000000
(1604665771.311180) can0 4EC#0134FEE418110000
(1604665771.311955) can0 201#90350E0000000000
(1604665771.312392) can0 4ED#0059FFFFFFB30000
(1604665771.312914) can0 202#90CBF20000000000
(1604665771.313954) can0 201#90350E0000000000
(1604665771.314919) can0 202#90CBF20000000000
(1604665771.315677) can0 4EC#00F8FE4717DE0000
(1604665771.315950) can0 201#90350E0000000000
(1604665771.316886) can0 4ED#0073FFFFFF960000
(1604665771.317004) can0 202#90CBF20000000000
(1604665771.317953) can0 201#90350E0000000000
(1604665771.318927) can0 202#90CBF20000000000
(1604665771.319955) can0 201#90350E0000000000
(1604665771.320152) can0 4EC#00D8FDFC17CC0000
(1604665771.320404) can0 0C0#02103E0000000000
(1604665771.320916) can0 202#90CBF20000000000
(1604665771.321194) can0 181#4A6B5402
(1604665771.321362) can0 4ED#00A00004FF940000
(1604665771.321480) can0 0C0#0113AC137F15FE32
(1604665771.321956) can0 201#90350E0000000000
(1604665771.322333) can0 182#49D42E01
(1604665771.322475) can0 0C0#0000EB015E01DC04
(1604665771.322940) can0 202#90CBF20000000000
(1604665771.323398) can0 0D0#15008D0087000B6B
(1604665771.323952) can0 201#90350E0000000000
(1604665771.324198) can0 181#49FC2D01
(1604665771.324338) can0 182#EB2B3003
(1604665771.324446) can0 0D0#080B55002200006B
(1604665771.324628) can0 4EC#00F0FDCF18070000
(1604665771.324915) can0 202#90CBF20000000000
(1604665771.325421) can0 0D0#0708762600000000
(1604665771.325843) can0 4ED#00AD000CFF7F0000
(1604665771.325963) can0 201#90350E0000000000
(1604665771.326191) can0 181#EBFA2F03
(1604665771.326328) can0 182#8A72FA04
(1604665771.326463) can0 0D0#0600270015A9006B
(1604665771.326914) can0 202#90CBF20000000000
(1604665771.327954) can0 201#90350E0000000000
(1604665771.328189) can0 181#8A700504
(1604665771.328262) can0 182#F6D00105
(1604665771.328914) can0 202#90CBF20000000000
(1604665771.329111) can0 4EC#0166FE1918630000
(1604665771.329954) can0 201#90350E0000000000
(1604665771.330190) can0 181#F6E50105
(1604665771.330256) can0 182#A0C1F206
(1604665771.330359) can0 182#A81DDF07
(1604665771.330521) can0 4ED#00950003FF8E0000
(1604665771.330836) can0 0B0#01253C0500000000
(1604665771.330955) can0 202#90CBF20000000000
(1604665771.331899) can0 0B0#0200130588130088
(1604665771.332012) can0 201#90350E0000000000
(1604665771.332242) can0 181#A0340E06
(1604665771.332308) can0 182#5FAFFF08
(1604665771.332917) can0 202#90CBF20000000000
(1604665771.333181) can0 181#A8D01D07
(1604665771.333584) can0 4EC#0195FF0418EF0000
(1604665771.333955) can0 201#90350E0000000000
(1604665771.334794) can0 4ED#00810000FF8D0000
(1604665771.334919) can0 202#90CBF20000000000
(1604665771.335177) can0 181#5F5D0008
(1604665771.335955) can0 201#90350E0000000000
(1604665771.336915) can0 202#90CBF20000000000
(1604665771.337954) can0 201#90350E0000000000
(1604665771.338093) can0 4EC#02C7FF75197A0000
(1604665771.338918) can0 202#90CBF20000000000
(1604665771.339291) can0 4ED#00900002FF930000
(1604665771.339952) can0 201#90350E0000000000
(1604665771.340404) can0 0C0#020FF00000000000
(1604665771.340916) can0 202#90CBF20000000000
(1604665771.341400) can0 0C0#0113C0139D161532
(1604665771.341955) can0 201#90350E0000000000
(1604665771.342431) can0 0C0#0000BC01B901A004
(1604665771.342526) can0 4EC#036A002F19F90000
(1604665771.342923) can0 202#90CBF20000000000
(1604665771.343397) can0 0D0#1500F300FE000B6B
(1604665771.343738) can0 4ED#00A6000AFF8C0000
(1604665771.343952) can0 201#90350E0000000000
(1604665771.344396) can0 0D0#080B55002200006B
(1604665771.344599) can0 0AA#0500CC0008
(1604665771.344719) can0 0AA#013C107C90398B6C
(1604665771.344916) can0 202#90CBF20000000000
(1604665771.345403) can0 0D0#0708B09200000000
(1604665771.345956) can0 201#90350E0000000000
(1604665771.346426) can0 0D0#06002800163E006B
(1604665771.346918) can0 202#90CBF20000000000
(1604665771.347033) can0 4EC#03AB01091A590000
(1604665771.347954) can0 201#90350E0000000000
(1604665771.348217) can0 4ED#00A1FFFFFF830000
(1604665771.348917) can0 202#90CBF20000000000
(1604665771.349954) can0 201#90350E0000000000
(1604665771.350916) can0 202#90CBF20000000000
(1604665771.351507) can0 4EC#040601A41A920000
(1604665771.351954) can0 201#90350E0000000000
(1604665771.352709) can0 4ED#009CFFFDFF820000
(1604665771.352917) can0 202#90CBF20000000000
(1604665771.353955) can0 201#90350E0000000000
(1604665771.354918) can0 202#90CBF20000000000
(1604665771.355897) can0 0B0#01233D0500000000
(1604665771.356012) can0 201#90350E0000000000
(1604665771.356140) can0 4EC#045301831AA80000
(1604665771.356834) can0 0B0#0200130588130088
(1604665771.356955) can0 202#90CBF20000000000
(1604665771.357171) can0 4ED#008D0000FF8C0000
(1604665771.357957) can0 201#90700D0000000000
(1604665771.358746) can0 0FF#93007D8700000000
(1604665771.358913) can0 202#9090F30000000000
(1604665771.359964) can0 201#90700D0000000000
(1604665771.360427) can0 0C0#020FAF0000000000
(1604665771.360518) can0 4EC#047101301AB40000
(1604665771.360917) can0 202#9090F30000000000
(1604665771.361396) can0 0C0#0113E713CF163732
(1604665771.361659) can0 4ED#007DFFFEFF930000
(1604665771.361952) can0 201#90700D0000000000
(1604665771.362433) can0 0C0#00010F017A017F04
(1604665771.362940) can0 202#9090F30000000000
(1604665771.363447) can0 0D0#15016B0176000B6B
(1604665771.363956) can0 201#90700D0000000000
(1604665771.364398) can0 0D0#080B55002200006B
(1604665771.364919) can0 202#9090F30000000000
(1604665771.365030) can0 4EC#047A00B91A9C0000
(1604665771.365419) can0 0D0#07085B2F00000000
(1604665771.365954) can0 201#90700D0000000000
(1604665771.366133) can0 4ED#008B0000FF8A0000
(1604665771.366418) can0 0D0#06002600153D006B
(1604665771.366917) can0 202#9090F30000000000
(1604665771.367954) can0 201#90700D0000000000
(1604665771.368915) can0 202#9090F30000000000
(1604665771.369385) can0 4EC#0457FFF51A7F0000
(1604665771.369955) can0 201#90700D0000000000
(1604665771.370598) can0 4ED#00910004FF8E0000
(1604665771.370913) can0 202#9090F30000000000
(1604665771.371956) can0 201#90700D0000000000
(1604665771.372210) can0 182#4ADB5102
(1604665771.372917) can0 202#9090F30000000000
(1604665771.373866) can0 4EC#043EFF0A1A630000
(1604665771.373982) can0 201#90700D0000000000
(1604665771.374918) can0 202#9090F30000000000
(1604665771.375069) can0 4ED#009D000CFF900000
(1604665771.375956) can0 201#90700D0000000000
(1604665771.376917) can0 202#9090F30000000000
(1604665771.377961) can0 201#90700D0000000000
(1604665771.378337) can0 4EC#0445FE641A460000
(1604665771.378918) can0 202#9090F30000000000
(1604665771.379541) can0 4ED#008C0008FF910000
(1604665771.379954) can0 201#90700D0000000000
(1604665771.380241) can0 182#A8CEDE07
(1604665771.380405) can0 0C0#020FE30000000000
(1604665771.380835) can0 0B0#01273A0500000000
(1604665771.380956) can0 202#9090F30000000000
(1604665771.381437) can0 0C0#01140813AF163932
(1604665771.381893) can0 0B0#0200130588130088
(1604665771.382013) can0 201#90700D0000000000
(1604665771.382426) can0 0C0#0000FF0162016D04
(1604665771.382810) can0 4EC#03FEFE191A090000
(1604665771.382937) can0 202#9090F30000000000
(1604665771.383116) can0 181#A85C1D07
(1604665771.383394) can0 0D0#1501D201DD000B6B
(1604665771.383955) can0 201#90F90E0000000000
(1604665771.384075) can0 4ED#0089FFFFFF980000
(1604665771.384403) can0 0D0#080B55002200006B
(1604665771.384688) can0 0AA#0500C10008
(1604665771.384806) can0 0AA#013C09BA90168C0A
(1604665771.384925) can0 202#9007F20000000000
(1604665771.385398) can0 0D0#07089D1800000000
(1604665771.385955) can0 201#90F90E0000000000
(1604665771.386427) can0 0D0#06002800160D006B
(1604665771.386916) can0 202#9007F20000000000
(1604665771.387286) can0 4EC#03F8FE6519650000
(1604665771.387957) can0 201#90F90E0000000000
(1604665771.388499) can0 4ED#00780000FF950000
(1604665771.388920) can0 202#9007F20000000000
(1604665771.389958) can0 201#90F90E0000000000
(1604665771.390922) can0 202#9007F20000000000
(1604665771.391757) can0 4EC#0390FF7B19530000
(1604665771.391952) can0 201#90F90E0000000000
(1604665771.392917) can0 202#9007F20000000000
(1604665771.393038) can0 4ED#007DFFFFFF960000
(1604665771.393952) can0 201#90F90E0000000000
(1604665771.394920) can0 202#9007F20000000000
(1604665771.395956) can0 201#90F90E0000000000
(1604665771.396242) can0 4EC#02F4000E19140000
(1604665771.396920) can0 202#9007F20000000000
(1604665771.397452) can0 4ED#008CFFF8FFA40000
(1604665771.397955) can0 201#90F90E0000000000
(1604665771.398924) can0 202#9007F20000000000
(1604665771.399964) can0 201#90F90E0000000000
(1604665771.400406) can0 0C0#0210240000000000
(1604665771.400729) can0 4EC#0286003F18C80000
(1604665771.400925) can0 202#9007F20000000000
(1604665771.401413) can0 0C0#0113F4139A162632
(1604665771.401942) can0 4ED#007B0005FFA70000
(1604665771.402065) can0 201#90F90E0000000000
(1604665771.402437) can0 0C0#00015501CB01D104
(1604665771.402923) can0 202#9007F20000000000
(1604665771.403405) can0 0D0#1502480254000B6B
(1604665771.403953) can0 201#90F90E0000000000
(1604665771.404398) can0 0D0#080B55002200006B
(1604665771.404917) can0 202#9007F20000000000
(1604665771.405200) can0 4EC#02A6005018870000
(1604665771.405564) can0 0D0#0708899F00000000
(1604665771.405905) can0 0B0#012A370500000000
(1604665771.406016) can0 201#90F90E0000000000
(1604665771.406420) can0 0D0#0600270015CB006B
(1604665771.406552) can0 4ED#00770001FFAB0000
(1604665771.406834) can0 0B0#0200130588130088
(1604665771.406955) can0 202#9007F20000000000
(1604665771.407958) can0 201#9020100000000000
(1604665771.408920) can0 202#90E0F00000000000
(1604665771.409676) can0 4EC#02D2006D18450000
(1604665771.409955) can0 201#9020100000000000
(1604665771.410900) can0 4ED#0080FFFFFF9A0000
(1604665771.411017) can0 202#90E0F00000000000
(1604665771.411957) can0 201#9020100000000000
(1604665771.412931) can0 202#90E0F00000000000
(1604665771.413955) can0 201#9020100000000000
(1604665771.414158) can0 4EC#028E004318020000
(1604665771.414923) can0 202#90E0F00000000000
(1604665771.415361) can0 4ED#00760003FF9A0000
(1604665771.415955) can0 201#9020100000000000
(1604665771.416923) can0 202#90E0F00000000000
(1604665771.417956) can0 201#9020100000000000
(1604665771.418635) can0 4EC#0226FFCB17C20000
(1604665771.418920) can0 202#90E0F00000000000
(1604665771.419837) can0 4ED#006DFFFFFFA50000
(1604665771.419963) can0 201#9020100000000000
(1604665771.420409) can0 0C0#0210170000000000
(1604665771.420921) can0 202#90E0F00000000000
(1604665771.421041) can0 181#4A6F5402
(1604665771.421403) can0 0C0#0113DB13AF161532
(1604665771.421955) can0 201#9020100000000000
(1604665771.422172) can0 182#49D42E01
(1604665771.422431) can0 0C0#0001260169019A04
(1604665771.422931) can0 202#90E0F00000000000
(1604665771.423097) can0 4EC#022CFF66179E0000
(1604665771.423641) can0 0D0#15004A0044000B6B
(1604665771.423957) can0 201#9020100000000000
(1604665771.424022) can0 181#49FC2D01
(1604665771.424183) can0 182#EBF42F03
(1604665771.424309) can0 4ED#007CFFFDFF9D0000
(1604665771.424425) can0 0D0#080B56002300006B
(1604665771.424779) can0 0AA#0500E60009
(1604665771.424896) can0 0AA#013BDD1D90188A61
(1604665771.425013) can0 202#90E0F00000000000
(1604665771.425399) can0 0D0#07088E1D00000000
(1604665771.425959) can0 201#9020100000000000
(1604665771.426026) can0 181#EBEB2F03
(1604665771.426095) can0 182#8A75FA04
(1604665771.426431) can0 0D0#0600270015E6006B
(1604665771.426923) can0 202#90E0F00000000000
(1604665771.427570) can0 4EC#0247FEC517820000
(1604665771.427957) can0 201#9020100000000000
(1604665771.428028) can0 181#8AAB0504
(1604665771.428139) can0 182#F6120205
(1604665771.428779) can0 4ED#006F0003FFA10000
(1604665771.428919) can0 202#90E0F00000000000
(1604665771.429958) can0 201#9020100000000000
(1604665771.430025) can0 181#F6B50205
(1604665771.430128) can0 182#A0D7F006
(1604665771.430192) can0 182#A804DF07
(1604665771.430838) can0 0B0#0129370500000000
(1604665771.430958) can0 202#90E0F00000000000
(1604665771.431895) can0 0B0#0200130588130088
(1604665771.432022) can0 201#9020100000000000
(1604665771.432088) can0 181#A01E1006
(1604665771.432156) can0 182#5FA0FF08
(1604665771.432304) can0 4EC#0200FEAA175A0000
(1604665771.432924) can0 202#90E0F00000000000
(1604665771.433036) can0 181#A8D81D07
(1604665771.433255) can0 4ED#007BFFFFFFAF0000
(1604665771.433957) can0 201#90BE0F0000000000
(1604665771.434918) can0 202#9042F10000000000
(1604665771.435013) can0 181#5F690008
(1604665771.435952) can0 201#90BE0F0000000000
(1604665771.436551) can0 4EC#0209FE82174E0000
(1604665771.436914) can0 202#9042F10000000000
(1604665771.437744) can0 4ED#00700000FFB50000
(1604665771.437952) can0 201#90BE0F0000000000
(1604665771.438926) can0 202#9042F10000000000
(1604665771.439960) can0 201#90BE0F0000000000
(1604665771.440408) can0 0C0#020FE30000000000
(1604665771.440919) can0 202#9042F10000000000
(1604665771.441033) can0 4EC#0201FE4F174C0000
(1604665771.441396) can0 0C0#0113C6138E15ED32
(1604665771.441958) can0 201#90BE0F0000000000
(1604665771.442222) can0 4ED#006CFFFBFFB80000
(1604665771.442421) can0 0C0#00013E019D017404
(1604665771.442925) can0 202#9042F10000000000
(1604665771.443403) can0 0D0#1500AF00BA000B6B
(1604665771.443955) can0 201#90BE0F0000000000
(1604665771.444398) can0 0D0#080B56002300006B
(1604665771.444919) can0 202#9042F10000000000
(1604665771.445407) can0 0D0#07087AA400000000
(1604665771.445516) can0 4EC#026BFE0117460000
(1604665771.445958) can0 201#90BE0F0000000000
(1604665771.446426) can0 0D0#0600270015B4006B
(1604665771.446711) can0 4ED#006DFFFAFFB50000
(1604665771.446926) can0 202#9042F10000000000
(1604665771.447956) can0 201#90BE0F0000000000
(1604665771.448919) can0 202#9042F10000000000
(1604665771.449958) can0 201#90BE0F0000000000
(1604665771.450077) can0 4EC#024AFE1517570000
(1604665771.450924) can0 202#9042F10000000000
(1604665771.451175) can0 4ED#005E0000FFBA0000
(1604665771.451960) can0 201#90BE0F0000000000
(1604665771.452938) can0 202#9042F10000000000
(1604665771.453956) can0 201#90BE0F0000000000
(1604665771.454441) can0 4EC#02C6FE4717740000
(1604665771.454917) can0 202#9042F10000000000
(1604665771.455651) can0 4ED#0083FFF9FFAD0000
(1604665771.455895) can0 0B0#0128370500000000
(1604665771.456022) can0 201#90BE0F0000000000
(1604665771.456835) can0 0B0#0200130588130088
(1604665771.456957) can0 202#9042F10000000000
(1604665771.457958) can0 201#90BE0F0000000000
(1604665771.458922) can0 202#9042F10000000000
(1604665771.459048) can0 4EC#02D3FD86177A0000
(1604665771.459959) can0 201#905C0F0000000000
(1604665771.460122) can0 4ED#0063FFF7FFAE0000
(1604665771.460452) can0 0C0#02103E0000000000
(1604665771.460921) can0 202#90A4F10000000000
(1604665771.461409) can0 0C0#0113D4138115EF32
(1604665771.461960) can0 201#905C0F0000000000
(1604665771.462469) can0 0C0#0001060167017304
(1604665771.462937) can0 202#90A4F10000000000
(1604665771.463393) can0 4EC#02E1FD5917500000
(1604665771.463518) can0 0D0#1501250130000B6B
(1604665771.463958) can0 201#905C0F0000000000
(1604665771.464399) can0 0D0#080B56002300006B
(1604665771.464601) can0 4ED#0062FFF3FF9F0000
(1604665771.464922) can0 202#90A4F10000000000
(1604665771.465508) can0 0D0#0708989A00000000
(1604665771.465954) can0 201#905C0F0000000000
(1604665771.466426) can0 0D0#060028001601006B
(1604665771.466922) can0 202#90A4F10000000000
(1604665771.467869) can0 4EC#030CFC40173E0000
(1604665771.467992) can0 201#905C0F0000000000
(1604665771.468922) can0 202#90A4F10000000000
(1604665771.469078) can0 4ED#0082FFF9FF890000
(1604665771.469957) can0 201#905C0F0000000000
(1604665771.470924) can0 202#90A4F10000000000
(1604665771.471968) can0 201#905C0F0000000000
(1604665771.472103) can0 182#4ADD5102
(1604665771.472357) can0 4EC#0268FAC917320000
(1604665771.472923) can0 202#90A4F10000000000
(1604665771.473565) can0 4ED#00770004FF960000
(1604665771.473956) can0 201#905C0F0000000000
(1604665771.474922) can0 202#90A4F10000000000
(1604665771.475960) can0 201#905C0F0000000000
(1604665771.476837) can0 4EC#01C5FA5316E80000
(1604665771.476959) can0 202#90A4F10000000000
(1604665771.477956) can0 201#905C0F0000000000
(1604665771.478081) can0 4ED#0077FFF3FF9E0000
(1604665771.478923) can0 202#90A4F10000000000
(1604665771.479959) can0 201#905C0F0000000000
(1604665771.480087) can0 182#A80CDF07
(1604665771.480424) can0 0C0#0210240000000000
(1604665771.480839) can0 0B0#0128390500000000
(1604665771.480956) can0 202#90A4F10000000000
(1604665771.481315) can0 4EC#0239FA1116AB0000
(1604665771.481436) can0 0C0#0113DA136F15F532
(1604665771.481890) can0 0B0#0200130588130088
(1604665771.482010) can0 201#905C0F0000000000
(1604665771.482431) can0 0C0#0000F1013F013B04
(1604665771.482544) can0 4ED#008BFFF9FF890000
(1604665771.482688) can0 0AA#0A0A150B6607BA
(1604665771.482929) can0 202#90A4F10000000000
(1604665771.482994) can0 181#A86E1E07
(1604665771.483399) can0 0D0#15018A0195000A6B
(1604665771.483958) can0 201#905C0F0000000000
(1604665771.484399) can0 0D0#080B56002300006B
(1604665771.484922) can0 202#90A4F10000000000
(1604665771.485404) can0 0D0#0708822200000000
(1604665771.485798) can0 4EC#01BDFAB916850000
(1604665771.485958) can0 201#905C0F0000000000
(1604665771.486425) can0 0D0#0600270015C8006B
(1604665771.486921) can0 202#90A4F10000000000
(1604665771.487040) can0 4ED#0091FFFFFF7D0000
(1604665771.487960) can0 201#905C0F0000000000
(1604665771.488922) can0 202#90A4F10000000000
(1604665771.489960) can0 201#905C0F0000000000
(1604665771.490264) can0 4EC#0134FCA616350000
(1604665771.490921) can0 202#90A4F10000000000
(1604665771.491476) can0 4ED#0099FFF3FF740000
(1604665771.491959) can0 201#905C0F0000000000
(1604665771.492923) can0 202#90A4F10000000000
(1604665771.493958) can0 201#905C0F0000000000
(1604665771.494029) can0 0AA#0500E10009
(1604665771.494161) can0 0AA#013BDC078FDD8AC6
(1604665771.494748) can0 4EC#00E6FEB515F40000
(1604665771.494922) can0 202#90A4F10000000000
(1604665771.495953) can0 4ED#00A7FFF4FF7A0000
(1604665771.496074) can0 201#905C0F0000000000
(1604665771.496924) can0 202#90A4F10000000000
(1604665771.497960) can0 201#905C0F0000000000
(1604665771.498922) can0 202#90A4F10000000000
(1604665771.499208) can0 4EC#000700A615520000
(1604665771.499958) can0 201#905C0F0000000000
(1604665771.500408) can0 0C0#020FF00000000000
(1604665771.500548) can0 4ED#00A4FFFCFF950000
(1604665771.500924) can0 202#90A4F10000000000
(1604665771.501398) can0 0C0#0113B9133B15DD32
(1604665771.501956) can0 201#905C0F0000000000
(1604665771.502430) can0 0C0#00016A017A01A204
(1604665771.502931) can0 202#90A4F10000000000
(1604665771.503401) can0 0D0#1501FF020B000C6B
(1604665771.503678) can0 4EC#FF7702B515000000
(1604665771.503958) can0 201#905C0F0000000000
(1604665771.504399) can0 0D0#080B56002300006B
(1604665771.504893) can0 4ED#00B4FFFAFF750000
(1604665771.505008) can0 202#90A4F10000000000
(1604665771.505403) can0 0D0#0708CB8900000000
(1604665771.505894) can0 0B0#0127380500000000
(1604665771.505959) can0 0AA#0500E00009
(1604665771.506100) can0 0AA#013BE62C8FA88B70
(1604665771.506222) can0 201#905C0F0000000000
(1604665771.506433) can0 0D0#06002900168B006B
(1604665771.506835) can0 0B0#0200130588130088
(1604665771.506959) can0 202#90A4F10000000000
(1604665771.507959) can0 201#90F90E0000000000
(1604665771.508166) can0 4EC#FF51039314B80000
(1604665771.508923) can0 202#9007F20000000000
(1604665771.509371) can0 4ED#00AEFFFFFF5C0000
(1604665771.509958) can0 201#90F90E0000000000
(1604665771.510748) can0 0FF#94007D8700000000
(1604665771.510922) can0 202#9007F20000000000
(1604665771.511959) can0 201#90F90E0000000000
(1604665771.512631) can0 4EC#FEC6043C147B0000
(1604665771.512930) can0 202#9007F20000000000
(1604665771.513838) can0 4ED#00910005FF780000
(1604665771.513960) can0 201#90F90E0000000000
(1604665771.514924) can0 202#9007F20000000000
(1604665771.515959) can0 201#90F90E0000000000
(1604665771.516923) can0 202#9007F20000000000
(1604665771.517102) can0 4EC#FE67042714650000
(1604665771.517957) can0 201#90F90E0000000000
(1604665771.518316) can0 4ED#0083000FFF7D0000
(1604665771.518926) can0 202#9007F20000000000
(1604665771.519959) can0 201#90F90E0000000000
(1604665771.520405) can0 0C0#020FF00000000000
(1604665771.520876) can0 181#4A705402
(1604665771.521000) can0 202#9007F20000000000
(1604665771.521404) can0 0C0#01137513FF15A232
(1604665771.521596) can0 4EC#FEA4031714600000
(1604665771.521957) can0 201#90F90E0000000000
(1604665771.522023) can0 182#49D52E01
(1604665771.522426) can0 0C0#000110018601A604
(1604665771.522807) can0 4ED#0073000DFF720000
(1604665771.522926) can0 202#9007F20000000000
(1604665771.523403) can0 0D0#150273026E000B6B
(1604665771.523880) can0 181#49FE2D01
(1604665771.523945) can0 182#EB913003
(1604665771.524087) can0 201#90F90E0000000000
(1604665771.524396) can0 0D0#080B56002300006B
(1604665771.524923) can0 202#9007F20000000000
(1604665771.525403) can0 0D0#0708C28C00000000
(1604665771.525883) can0 181#EB1A3003
(1604665771.525948) can0 182#8A9EFA04
(1604665771.526088) can0 201#90F90E0000000000
(1604665771.526206) can0 4EC#FE3B011314880000
(1604665771.526433) can0 0D0#06002800166C006B
(1604665771.526923) can0 202#9007F20000000000
(1604665771.527284) can0 4ED#0069000FFF7D0000
(1604665771.527879) can0 181#8A6F0504
(1604665771.527943) can0 182#F6D40105
(1604665771.528086) can0 201#90F90E0000000000
(1604665771.528921) can0 202#9007F20000000000
(1604665771.529876) can0 181#F6EC0105
(1604665771.529944) can0 182#A0F5F106
(1604665771.530061) can0 182#A866DF07
(1604665771.530170) can0 201#90F90E0000000000
(1604665771.530558) can0 4EC#FE68FF8414D10000
(1604665771.530841) can0 0B0#01233C0500000000
(1604665771.530959) can0 202#9007F20000000000
(1604665771.531767) can0 4ED#00720015FF990000
(1604665771.531900) can0 0B0#0200130588130088
(1604665771.531965) can0 181#A0D70E06
(1604665771.532077) can0 182#5FAAFF08
(1604665771.532193) can0 201#90F90E0000000000
(1604665771.532866) can0 181#A8BD1D07
(1604665771.532988) can0 202#9007F20000000000
(1604665771.533959) can0 201#90700D0000000000
(1604665771.534866) can0 181#5F5F0008
(1604665771.534991) can0 202#9090F30000000000
(1604665771.535101) can0 4EC#FEA4FE82153C0000
(1604665771.535959) can0 201#90700D0000000000
(1604665771.536241) can0 4ED#009B0016FF9D0000
(1604665771.536921) can0 202#9090F30000000000
(1604665771.537957) can0 201#90700D0000000000
(1604665771.538922) can0 202#9090F30000000000
(1604665771.539510) can0 4EC#FEACFD6915AB0000
(1604665771.539961) can0 201#90700D0000000000
(1604665771.540408) can0 0C0#020FFD0000000000
(1604665771.540714) can0 4ED#0083000EFFAE0000
(1604665771.540921) can0 202#9090F30000000000
(1604665771.541403) can0 0C0#01135E1410159232
(1604665771.541960) can0 201#90700D0000000000
(1604665771.542441) can0 0C0#0000F70161017904
(1604665771.542930) can0 202#9090F30000000000
(1604665771.543402) can0 0D0#150064006F000B6B
(1604665771.543960) can0 201#90700D0000000000
(1604665771.544079) can0 4EC#FF71FCD515E50000
(1604665771.544400) can0 0D0#080B57002400006B
(1604665771.544920) can0 202#9090F30000000000
(1604665771.545046) can0 0AA#0500CB0008
(1604665771.545168) can0 0AA#013BF7AD8FD48BD9
(1604665771.545306) can0 4ED#007C0002FFAE0000
(1604665771.545423) can0 0D0#07087F2300000000
(1604665771.545957) can0 201#90700D0000000000
(1604665771.546431) can0 0D0#0600270015C0006B
(1604665771.546922) can0 202#9090F30000000000
(1604665771.547960) can0 201#90700D0000000000
(1604665771.548446) can0 4EC#FF55FD2816260000
(1604665771.548920) can0 202#9090F30000000000
(1604665771.549658) can0 4ED#00630009FFB50000
(1604665771.549961) can0 201#90700D0000000000
(1604665771.550924) can0 202#9090F30000000000
(1604665771.551961) can0 201#90700D0000000000
(1604665771.552927) can0 4EC#FF9CFD5416890000
(1604665771.553067) can0 202#9090F30000000000
(1604665771.553961) can0 201#90700D0000000000
(1604665771.554133) can0 4ED#0055FFFCFFC30000
(1604665771.554923) can0 202#9090F30000000000
(1604665771.555905) can0 0B0#01233E0500000000
(1604665771.556021) can0 201#90700D0000000000
(1604665771.556837) can0 0B0#0200130588130088
(1604665771.556955) can0 202#9090F30000000000
(1604665771.557410) can0 4EC#FFD1FDC817080000
(1604665771.557960) can0 201#90700D0000000000
(1604665771.558619) can0 4ED#00660000FFA80000
(1604665771.558920) can0 202#9090F30000000000
(1604665771.559960) can0 201#90700D0000000000
(1604665771.560404) can0 0C0#020FD60000000000
(1604665771.560921) can0 202#9090F30000000000
(1604665771.561405) can0 0C0#011385135C15D832
(1604665771.561883) can0 4EC#0020FDFA174B0000
(1604665771.562005) can0 201#90700D0000000000
(1604665771.562428) can0 0C0#0000C3016001A704
(1604665771.562922) can0 202#9090F30000000000
(1604665771.563091) can0 4ED#00680000FFAD0000
(1604665771.563397) can0 0D0#1500DA00D5000B6B
(1604665771.563959) can0 201#90700D0000000000
(1604665771.564400) can0 0D0#080B57002400006B
(1604665771.564923) can0 202#9090F30000000000
(1604665771.565405) can0 0D0#0708929C00000000
(1604665771.565961) can0 201#90700D0000000000
(1604665771.566359) can0 4EC#0067FE7C17790000
(1604665771.566452) can0 0D0#0600270015F2006B
(1604665771.566923) can0 202#9090F30000000000
(1604665771.567570) can0 4ED#0069FFFFFFB40000
(1604665771.567960) can0 201#90700D0000000000
(1604665771.568922) can0 202#9090F30000000000
(1604665771.569960) can0 201#90700D0000000000
(1604665771.570835) can0 4EC#0097FF13179D0000
(1604665771.570958) can0 202#9090F30000000000
(1604665771.571957) can0 201#90700D0000000000
(1604665771.572024) can0 182#4AE25102
(1604665771.572168) can0 4ED#0058FFF9FFAD0000
(1604665771.572929) can0 202#9090F30000000000
(1604665771.573961) can0 201#90700D0000000000
(1604665771.574925) can0 202#9090F30000000000
(1604665771.575303) can0 4EC#00D4FFA1178C0000
(1604665771.575960) can0 201#90700D0000000000
(1604665771.576513) can0 4ED#005BFFF9FF9F0000
(1604665771.576922) can0 202#9090F30000000000
(1604665771.577960) can0 201#90700D0000000000
(1604665771.578923) can0 202#9090F30000000000
(1604665771.579780) can0 4EC#00AAFFBA17AB0000
(1604665771.579961) can0 201#90700D0000000000
(1604665771.580034) can0 182#A805DF07
(1604665771.580410) can0 0C0#0210170000000000
(1604665771.580838) can0 0B0#01253C0500000000
(1604665771.580961) can0 202#9090F30000000000
(1604665771.581077) can0 4ED#0054FFFEFFB20000
(1604665771.581403) can0 0C0#01139813A715F432
(1604665771.581900) can0 0B0#0200130588130088
(1604665771.582018) can0 201#90350E0000000000
(1604665771.582428) can0 0C0#0000D6019C01DD04
(1604665771.582786) can0 181#A8781E07
(1604665771.582930) can0 202#90CBF20000000000
(1604665771.583401) can0 0D0#150140014B000B6B
(1604665771.583960) can0 201#90350E0000000000
(1604665771.584273) can0 4EC#0088FF8017970000
(1604665771.584406) can0 0D0#080B57002400006B
(1604665771.584923) can0 202#90CBF20000000000
(1604665771.585138) can0 0AA#0500C20008
(1604665771.585250) can0 0AA#013BFA6690348B2A
(1604665771.585402) can0 0D0#070877A500000000
(1604665771.585527) can0 4ED#0077FFFEFFAB0000
(1604665771.585958) can0 201#90350E0000000000
(1604665771.586435) can0 0D0#0600270015AD006B
(1604665771.586927) can0 202#90CBF20000000000
(1604665771.587960) can0 201#90350E0000000000
(1604665771.588720) can0 4EC#009BFF0917A20000
(1604665771.588921) can0 202#90CBF20000000000
(1604665771.589931) can0 4ED#007C0005FFA30000
(1604665771.590047) can0 201#90350E0000000000
(1604665771.590925) can0 202#90CBF20000000000
(1604665771.591960) can0 201#90350E0000000000
(1604665771.592931) can0 202#90CBF20000000000
(1604665771.593213) can0 4EC#0076FEEA17A80000
(1604665771.593960) can0 201#90350E0000000000
(1604665771.594427) can0 4ED#006EFFF2FF940000
(1604665771.594922) can0 202#90CBF20000000000
(1604665771.595963) can0 201#90350E0000000000
(1604665771.596922) can0 202#90CBF20000000000
(1604665771.597685) can0 4EC#00D3FEDB177A0000
(1604665771.597960) can0 201#90350E0000000000
(1604665771.598894) can0 4ED#0074FFF7FFA60000
(1604665771.599015) can0 202#90CBF20000000000
(1604665771.599959) can0 201#90350E0000000000
(1604665771.600405) can0 0C0#020FC90000000000
(1604665771.600922) can0 202#90CBF20000000000
(1604665771.601404) can0 0C0#0113A0139A15F232
(1604665771.601961) can0 201#90350E0000000000
(1604665771.602161) can0 4EC#0081FECF17360000
(1604665771.602433) can0 0C0#00011C0165013304
(1604665771.602925) can0 202#90CBF20000000000
(1604665771.603377) can0 4ED#00760000FF9E0000
(1604665771.603491) can0 0D0#1501B501C1000B6B
(1604665771.603962) can0 201#90350E0000000000
(1604665771.604497) can0 0D0#080B57002400006B
(1604665771.604925) can0 202#90CBF20000000000
(1604665771.605430) can0 0D0#0708881F00000000
(1604665771.605903) can0 0B0#01233D0500000000
(1604665771.606026) can0 201#90350E0000000000
(1604665771.606430) can0 0D0#060028001618006B
(1604665771.606666) can0 4EC#0029FE7117080000
(1604665771.606839) can0 0B0#0200130588130088
(1604665771.606961) can0 202#90CBF20000000000
(1604665771.607850) can0 4ED#0081FFFAFFB50000
(1604665771.607970) can0 201#90700D0000000000
(1604665771.608921) can0 202#9090F30000000000
(1604665771.609961) can0 201#90700D0000000000
(1604665771.610925) can0 202#9090F30000000000
(1604665771.611114) can0 4EC#FFF2FE97166F0000
(1604665771.611961) can0 201#90700D0000000000
(1604665771.612325) can0 4ED#00820002FF940000
(1604665771.612939) can0 202#9090F30000000000
(1604665771.613969) can0 201#90700D0000000000
(1604665771.614925) can0 202#9090F30000000000
(1604665771.615591) can0 4EC#FFCFFF5716350000
(1604665771.615957) can0 201#90700D0000000000
(1604665771.616802) can0 4ED#007CFFF4FFA30000
(1604665771.616924) can0 202#9090F30000000000
(1604665771.617960) can0 201#90700D0000000000
(1604665771.618925) can0 202#9090F30000000000
(1604665771.619963) can0 201#90700D0000000000
(1604665771.620099) can0 4EC#FFCDFFEB15F00000
(1604665771.620420) can0 0C0#020FF00000000000
(1604665771.620726) can0 181#4A735402
(1604665771.620921) can0 202#9090F30000000000
(1604665771.621272) can0 4ED#0074FFF3FFA00000
(1604665771.621402) can0 0C0#011393137F15E532
(1604665771.621809) can0 182#49D52E01
(1604665771.621964) can0 201#90700D0000000000
(1604665771.622584) can0 0C0#000156017B014204
(1604665771.622931) can0 202#9090F30000000000
(1604665771.623400) can0 0D0#15022B0225000B6B
(1604665771.623718) can0 181#49FE2D01
(1604665771.623784) can0 182#EBD83003
(1604665771.623967) can0 201#90700D0000000000
(1604665771.624407) can0 0D0#080B57002400006B
(1604665771.624532) can0 4EC#FF99008B15CE0000
(1604665771.624923) can0 202#9090F30000000000
(1604665771.625231) can0 0AA#0500C10008
(1604665771.625352) can0 0AA#013C13D5902E8C26
(1604665771.625468) can0 0D0#07086EA800000000
(1604665771.625741) can0 4ED#0072FFF1FFAD0000
(1604665771.625806) can0 181#EB313003
(1604665771.625906) can0 182#8A77FA04
(1604665771.626034) can0 201#90700D0000000000
(1604665771.626433) can0 0D0#060027001596006B
(1604665771.626923) can0 202#9090F30000000000
(1604665771.627714) can0 181#8A110504
(1604665771.627781) can0 182#F6B60105
(1604665771.627968) can0 201#90700D0000000000
(1604665771.628921) can0 202#9090F30000000000
(1604665771.629039) can0 4EC#FF60011615A50000
(1604665771.629715) can0 181#F6FF0105
(1604665771.629845) can0 182#A08EF306
(1604665771.629911) can0 182#A8FFDE07
(1604665771.630049) can0 201#90700D0000000000
(1604665771.630231) can0 4ED#00770000FFA50000
(1604665771.630847) can0 0B0#01203E0500000000
(1604665771.630965) can0 202#9090F30000000000
(1604665771.631709) can0 181#A0680D06
(1604665771.631848) can0 182#5FB1FF08
(1604665771.631964) can0 0B0#0200130588130088
(1604665771.632089) can0 201#90700D0000000000
(1604665771.632711) can0 181#A8F61D07
(1604665771.632930) can0 202#9090F30000000000
(1604665771.633491) can0 4EC#FF550139156F0000
(1604665771.633960) can0 201#90490C0000000000
(1604665771.634715) can0 4ED#0085FFFFFFBB0000
(1604665771.634782) can0 181#5F550008
(1604665771.634921) can0 202#90B7F40000000000
(1604665771.635960) can0 201#90490C0000000000
(1604665771.636922) can0 202#90B7F40000000000
(1604665771.637961) can0 201#90490C0000000000
(1604665771.638076) can0 4EC#FF1C016715580000
(1604665771.638924) can0 202#90B7F40000000000
(1604665771.639190) can0 4ED#00810005FFA00000
(1604665771.639961) can0 201#90490C0000000000
(1604665771.640673) can0 0C0#020FFD0000000000
(1604665771.640924) can0 202#90B7F40000000000
(1604665771.641455) can0 0C0#01137D13B015BD32
(1604665771.641960) can0 201#90490C0000000000
(1604665771.642450) can0 4EC#FF050125153F0000
(1604665771.642563) can0 0C0#00011701AD017B04
(1604665771.642923) can0 202#90B7F40000000000
(1604665771.643406) can0 0D0#15001B0026000B6B
(1604665771.643656) can0 4ED#00710006FF950000
(1604665771.643957) can0 201#90490C0000000000
(1604665771.644404) can0 0D0#080B59002500006B
(1604665771.644931) can0 202#90B7F40000000000
(1604665771.645407) can0 0D0#0708881F00000000
(1604665771.645959) can0 201#90490C0000000000
(1604665771.646434) can0 0D0#0600270015CF006B
(1604665771.646924) can0 202#90B7F40000000000
(1604665771.647051) can0 4EC#FEDC00A6151C0000
(1604665771.647971) can0 201#90490C0000000000
(1604665771.648133) can0 4ED#006E0003FF940000
(1604665771.648930) can0 202#90B7F40000000000
(1604665771.649968) can0 201#90490C0000000000
(1604665771.650926) can0 202#90B7F40000000000
(1604665771.651404) can0 4EC#FECE003C15160000
(1604665771.651960) can0 201#90490C0000000000
(1604665771.652613) can0 4ED#007D0005FF9F0000
(1604665771.652929) can0 202#90B7F40000000000
(1604665771.653959) can0 201#90490C0000000000
(1604665771.654933) can0 202#90B7F40000000000
(1604665771.655879) can0 4EC#FEF9FF9615200000
(1604665771.655995) can0 0B0#011B430500000000
(1604665771.656119) can0 201#90490C0000000000
(1604665771.656840) can0 0B0#0200130588130088
(1604665771.656961) can0 202#90B7F40000000000
(1604665771.657083) can0 4ED#0071000BFFAE0000
(1604665771.657963) can0 201#905E0A0000000000
(1604665771.658924) can0 202#90A2F60000000000
(1604665771.659963) can0 201#905E0A0000000000
(1604665771.660345) can0 4EC#FECDFEC315140000
(1604665771.660468) can0 0C0#0210170000000000
(1604665771.660920) can0 202#90A2F60000000000
(1604665771.661403) can0 0C0#01137213C715B232
(1604665771.661555) can0 4ED#00810001FFA60000
(1604665771.661963) can0 201#905E0A0000000000
(1604665771.662434) can0 0C0#0000DD0180019604
(1604665771.662750) can0 0FF#94007D8700000000
(1604665771.662926) can0 202#90A2F60000000000
(1604665771.663409) can0 0D0#150090008B000B6B
(1604665771.663961) can0 201#905E0A0000000000
(1604665771.664404) can0 0D0#080B59002500006B
(1604665771.664827) can0 4EC#FEA0FE9D151A0000
(1604665771.664947) can0 202#90A2F60000000000
(1604665771.665408) can0 0D0#070874A600000000
(1604665771.665966) can0 201#905E0A0000000000
(1604665771.666081) can0 4ED#00820009FFA50000
(1604665771.666425) can0 0D0#0600270015A5006B
(1604665771.666923) can0 202#90A2F60000000000
(1604665771.667962) can0 201#905E0A0000000000
(1604665771.668922) can0 202#90A2F60000000000
(1604665771.669317) can0 4EC#FE7CFE3D156C0000
(1604665771.669963) can0 201#905E0A0000000000
(1604665771.670516) can0 4ED#0078000AFFA00000
(1604665771.670921) can0 202#90A2F60000000000
(1604665771.671729) can0 182#4AE95102
(1604665771.671960) can0 201#905E0A0000000000
(1604665771.672938) can0 202#90A2F60000000000
(1604665771.673782) can0 4EC#FEA5FE4115AB0000
(1604665771.673959) can0 201#905E0A0000000000
(1604665771.674923) can0 202#90A2F60000000000
(1604665771.675047) can0 4ED#00740004FFA40000
(1604665771.675963) can0 201#905E0A0000000000
(1604665771.676921) can0 202#90A2F60000000000
(1604665771.677963) can0 201#905E0A0000000000
(1604665771.678276) can0 4EC#FEE8FE9A15E00000
(1604665771.678923) can0 202#90A2F60000000000
(1604665771.679498) can0 4ED#007C0003FF9C0000
(1604665771.679726) can0 182#A838DF07
(1604665771.679963) can0 201#905E0A0000000000
(1604665771.680409) can0 0C0#0210310000000000
(1604665771.680846) can0 0B0#0119450500000000
(1604665771.680969) can0 202#90A2F60000000000
(1604665771.681411) can0 0C0#01136A138215BE32
(1604665771.681903) can0 0B0#0200130588130088
(1604665771.682020) can0 201#905E0A0000000000
(1604665771.682440) can0 0C0#000102019C016F04
(1604665771.682633) can0 181#A81C1E07
(1604665771.682756) can0 4EC#FEFCFEE716080000
(1604665771.682944) can0 202#90A2F60000000000
(1604665771.683133) can0 0AA#0A0A150B6607BA
(1604665771.683406) can0 0D0#1500F50100000B6B
(1604665771.683957) can0 201#9099090000000000
(1604665771.684075) can0 4ED#0073000AFFB10000
(1604665771.684400) can0 0D0#080B59002500006B
(1604665771.684924) can0 202#9067F70000000000
(1604665771.685399) can0 0D0#07088E1D00000000
(1604665771.685958) can0 201#9099090000000000
(1604665771.686436) can0 0D0#0600270015E6006B
(1604665771.686923) can0 202#9067F70000000000
(1604665771.687231) can0 4EC#FF0FFF2D16330000
(1604665771.687958) can0 201#9099090000000000
(1604665771.688445) can0 4ED#00710005FFB10000
(1604665771.688922) can0 202#9067F70000000000
(1604665771.689960) can0 201#9099090000000000
(1604665771.690923) can0 202#9067F70000000000
(1604665771.691708) can0 4EC#FF5BFF43166D0000
(1604665771.691956) can0 201#9099090000000000
(1604665771.692927) can0 4ED#007B0006FFAB0000
(1604665771.693040) can0 202#9067F70000000000
(1604665771.693954) can0 201#9099090000000000
(1604665771.694416) can0 0AA#0500880005
(1604665771.694481) can0 0AA#013C6B2F908C8CBF
(1604665771.694921) can0 202#9067F70000000000
(1604665771.695967) can0 201#9099090000000000
(1604665771.696177) can0 4EC#FF66FF2C16CA0000
(1604665771.696925) can0 202#9067F70000000000
(1604665771.697395) can0 4ED#0070000BFF9A0000
(1604665771.697958) can0 201#9099090000000000
(1604665771.698925) can0 202#9067F70000000000
(1604665771.699958) can0 201#9099090000000000
(1604665771.700410) can0 0C0#020FFD0000000000
(1604665771.700653) can0 4EC#FF8BFF4C17290000
(1604665771.700920) can0 202#9067F70000000000
(1604665771.701404) can0 0C0#01137B139815DA32
(1604665771.701864) can0 4ED#00880006FF9F0000
(1604665771.701986) can0 201#9099090000000000
(1604665771.702435) can0 0C0#00010501A401A604
(1604665771.702922) can0 202#9067F70000000000
(1604665771.703404) can0 0D0#15016B0176000B6B
(1604665771.703954) can0 201#9099090000000000
(1604665771.704401) can0 0D0#080B59002500006B
(1604665771.704923) can0 202#9067F70000000000
(1604665771.705126) can0 4EC#001BFF84176D0000
(1604665771.705410) can0 0D0#0708959B00000000
(1604665771.705902) can0 0B0#0119450500000000
(1604665771.706019) can0 201#9099090000000000
(1604665771.706336) can0 4ED#007E0007FF9A0000
(1604665771.706425) can0 0AA#0500800005
(1604665771.706546) can0 0AA#013C72ED90C78D1A
(1604665771.706840) can0 0B0#0200130588130088
(1604665771.706960) can0 202#9067F70000000000
(1604665771.707957) can0 201#9099090000000000
(1604665771.708923) can0 202#9067F70000000000
(1604665771.709601) can0 4EC#FFF9FFD7179F0000
(1604665771.709959) can0 201#9099090000000000
(1604665771.710816) can0 4ED#006A0009FFA00000
(1604665771.710937) can0 202#9067F70000000000
(1604665771.711956) can0 201#9099090000000000
(1604665771.712923) can0 202#9067F70000000000
(1604665771.713957) can0 201#9099090000000000
(1604665771.714089) can0 4EC#0066FFF517DE0000
(1604665771.714926) can0 202#9067F70000000000
(1604665771.715300) can0 4ED#005D0009FFB50000
(1604665771.715954) can0 201#9099090000000000
(1604665771.716928) can0 202#9067F70000000000
(1604665771.717958) can0 201#9099090000000000
(1604665771.718560) can0 4EC#008EFF9B18070000
(1604665771.718921) can0 202#9067F70000000000
(1604665771.719771) can0 4ED#00850009FFA50000
(1604665771.719958) can0 201#9099090000000000
(1604665771.720406) can0 0C0#020F950000000000
(1604665771.720568) can0 181#4A735402
(1604665771.720925) can0 202#9067F70000000000
(1604665771.721406) can0 0C0#01138B13AA15F232
(1604665771.721650) can0 182#49D52E01
(1604665771.721956) can0 201#9099090000000000
(1604665771.722435) can0 0C0#00011B01D201F804
(1604665771.722923) can0 202#9067F70000000000
(1604665771.723068) can0 4EC#00B5FF6618590000
(1604665771.723404) can0 0D0#1501E201DC000B6B
(1604665771.723563) can0 181#49FE2D01
(1604665771.723639) can0 182#EB263103
(1604665771.723957) can0 201#9099090000000000
(1604665771.724246) can0 4ED#00910007FF920000
(1604665771.724423) can0 0D0#080B59002500006B
(1604665771.724922) can0 202#9067F70000000000
(1604665771.725403) can0 0D0#0708A49600000000
(1604665771.725562) can0 181#EBE53003
(1604665771.725691) can0 182#8AA2FA04
(1604665771.725958) can0 201#9099090000000000
(1604665771.726440) can0 0D0#060028001620006B
(1604665771.726923) can0 202#9067F70000000000
(1604665771.727512) can0 4EC#00E6FFE8186F0000
(1604665771.727576) can0 181#8A320504
(1604665771.727689) can0 182#F61E0105
(1604665771.727957) can0 201#9099090000000000
(1604665771.728716) can0 4ED#00960000FF850000
(1604665771.728923) can0 202#9067F70000000000
(1604665771.729558) can0 181#F6380105
(1604665771.729690) can0 182#A062F706
(1604665771.729755) can0 182#A80FDF07
(1604665771.729956) can0 201#9099090000000000
(1604665771.730846) can0 0B0#011A450500000000
(1604665771.730963) can0 202#9067F70000000000
(1604665771.731553) can0 181#A0930906
(1604665771.731617) can0 182#5FCCFF08
(1604665771.731896) can0 0B0#0200130588130088
(1604665771.732014) can0 201#90FB090000000000
(1604665771.732136) can0 4EC#010D001718250000
(1604665771.732549) can0 181#A8ED1D07
(1604665771.732925) can0 202#9005F70000000000
(1604665771.733192) can0 4ED#0081FFFAFF970000
(1604665771.733961) can0 201#90FB090000000000
(1604665771.734550) can0 181#5F430008
(1604665771.734926) can0 202#9005F70000000000
(1604665771.735961) can0 201#90FB090000000000
(1604665771.736463) can0 4EC#00CC003217EE0000
(1604665771.736924) can0 202#9005F70000000000
(1604665771.737672) can0 4ED#0069FFFEFFA20000
(1604665771.737962) can0 201#90FB090000000000
(1604665771.738925) can0 202#9005F70000000000
(1604665771.739963) can0 201#90FB090000000000
(1604665771.740406) can0 0C0#02100A0000000000
(1604665771.740927) can0 202#9005F70000000000
(1604665771.741044) can0 4EC#00D2007017CD0000
(1604665771.741410) can0 0C0#0113A713AC160732
(1604665771.741962) can0 201#90FB090000000000
(1604665771.742138) can0 4ED#007A0006FF980000
(1604665771.742433) can0 0C0#000135016E01BB04
(1604665771.742926) can0 202#9005F70000000000
(1604665771.743409) can0 0D0#1502470252000B6B
(1604665771.743960) can0 201#90FB090000000000
(1604665771.744403) can0 0D0#080B59002500006B
(1604665771.744923) can0 202#9005F70000000000
(1604665771.745400) can0 4EC#0078008817C70000
(1604665771.745466) can0 0AA#0500840005
(1604665771.745609) can0 0AA#013C777A90E88CD0
(1604665771.745962) can0 201#90FB090000000000
(1604665771.746432) can0 0D0#060028001633006B
(1604665771.746607) can0 4ED#00830009FF970000
(1604665771.746925) can0 202#9005F70000000000
(1604665771.747964) can0 201#90FB090000000000
(1604665771.748925) can0 202#9005F70000000000
(1604665771.749884) can0 4EC#FFE900B917AA0000
(1604665771.750005) can0 201#90FB090000000000
(1604665771.750924) can0 202#9005F70000000000
(1604665771.751096) can0 4ED#00880007FF9B0000
(1604665771.751964) can0 201#90FB090000000000
(1604665771.752926) can0 202#9005F70000000000
(1604665771.753963) can0 201#90FB090000000000
(1604665771.754384) can0 4EC#002300D417800000
(1604665771.754927) can0 202#9005F70000000000
(1604665771.755569) can0 4ED#00820007FFAB0000
(1604665771.755904) can0 0B0#011D430500000000
(1604665771.756027) can0 201#90FB090000000000
(1604665771.756840) can0 0B0#0200130588130088
(1604665771.756960) can0 202#9005F70000000000
(1604665771.757963) can0 201#90FB090000000000
(1604665771.758837) can0 4EC#003800A3172B0000
(1604665771.758957) can0 202#9005F70000000000
(1604665771.759963) can0 201#90220B0000000000
(1604665771.760085) can0 4ED#00840005FF9F0000
(1604665771.760416) can0 0C0#020FFD0000000000
(1604665771.760921) can0 202#90DEF50000000000
(1604665771.761407) can0 0C0#01139613C015F432
(1604665771.761964) can0 201#90220B0000000000
(1604665771.762437) can0 0C0#0001780184015B04
(1604665771.762930) can0 202#90DEF50000000000
(1604665771.763311) can0 4EC#FFE3001A16D90000
(1604665771.763431) can0 0D0#1500490043000A6B
(1604665771.763963) can0 201#90220B0000000000
(1604665771.764405) can0 0D0#080B5A002600006B
(1604665771.764527) can0 4ED#00680004FFB90000
(1604665771.764923) can0 202#90DEF50000000000
(1604665771.765403) can0 0D0#070877A500000000
(1604665771.765960) can0 201#90220B0000000000
(1604665771.766425) can0 0D0#0600270015AD006B
(1604665771.766921) can0 202#90DEF50000000000
(1604665771.767781) can0 4EC#FFB0FFAE16A70000
(1604665771.767961) can0 201#90220B0000000000
(1604665771.768924) can0 202#90DEF50000000000
(1604665771.769050) can0 4ED#007F0008FFAA0000
(1604665771.769965) can0 201#90220B0000000000
(1604665771.770926) can0 202#90DEF50000000000
(1604665771.771621) can0 182#4AE85102
(1604665771.771963) can0 201#90220B0000000000
(1604665771.772252) can0 4EC#FF85FF8B16960000
(1604665771.772927) can0 202#90DEF50000000000
(1604665771.773466) can0 4ED#007C0001FF950000
(1604665771.773965) can0 201#90220B0000000000
(1604665771.774926) can0 202#90DEF50000000000
(1604665771.775965) can0 201#90220B0000000000
(1604665771.776738) can0 4EC#FF23FF1915BF0000
(1604665771.776921) can0 202#90DEF50000000000
(1604665771.777946) can0 4ED#00710006FF9C0000
(1604665771.778068) can0 201#90220B0000000000
(1604665771.778922) can0 202#90DEF50000000000
(1604665771.779613) can0 182#A830DF07
(1604665771.779963) can0 201#90220B0000000000
(1604665771.780417) can0 0C0#02108C0000000000
(1604665771.780842) can0 0B0#0121400500000000
(1604665771.780963) can0 202#90DEF50000000000
(1604665771.781206) can0 4EC#FF0AFE9516000000
(1604665771.781400) can0 0C0#01138313A015DC32
(1604665771.781901) can0 0B0#0200130588130088
(1604665771.782025) can0 201#90AB0C0000000000
(1604665771.782442) can0 0C0#000162015C018204
(1604665771.782507) can0 181#A8901D07
(1604665771.782610) can0 4ED#007A0005FFA60000
(1604665771.782928) can0 202#9055F40000000000
(1604665771.783409) can0 0D0#1500AD00B8000B6B
(1604665771.783960) can0 201#90AB0C0000000000
(1604665771.784406) can0 0D0#080B5A002600006B
(1604665771.784924) can0 202#9055F40000000000
(1604665771.785406) can0 0D0#0708989A00000000
(1604665771.785584) can0 0AA#05009A0006
(1604665771.785701) can0 0AA#013C519690878C1F
(1604665771.785823) can0 4EC#FF05FE7C15F00000
(1604665771.785971) can0 201#90AB0C0000000000
(1604665771.786423) can0 0D0#060028001601006B
(1604665771.786906) can0 4ED#006F0007FFA00000
(1604665771.787026) can0 202#9055F40000000000
(1604665771.787964) can0 201#90AB0C0000000000
(1604665771.788928) can0 202#9055F40000000000
(1604665771.789963) can0 201#90AB0C0000000000
(1604665771.790166) can0 4EC#FF25FE2315E80000
(1604665771.790929) can0 202#9055F40000000000
(1604665771.791389) can0 4ED#007E0003FFA70000
(1604665771.791962) can0 201#90AB0C0000000000
(1604665771.792926) can0 202#9055F40000000000
(1604665771.793961) can0 201#90AB0C0000000000
(1604665771.794640) can0 4EC#FEC3FDB215CB0000
(1604665771.794925) can0 202#9055F40000000000
(1604665771.795855) can0 4ED#00730006FFA80000
(1604665771.795976) can0 201#90AB0C0000000000
(1604665771.796929) can0 202#9055F40000000000
(1604665771.797970) can0 201#90AB0C0000000000
(1604665771.798928) can0 202#9055F40000000000
(1604665771.799128) can0 4EC#FE91FD7215B20000
(1604665771.799960) can0 201#90AB0C0000000000
(1604665771.800341) can0 4ED#0074FFFDFFB90000
(1604665771.800461) can0 0C0#020FBC0000000000
(1604665771.800928) can0 202#9055F40000000000
(1604665771.801404) can0 0C0#011374136C15CB32
(1604665771.801961) can0 201#90AB0C0000000000
(1604665771.802435) can0 0C0#0001060133014904
(1604665771.802932) can0 202#9055F40000000000
(1604665771.803548) can0 0D0#150122012D000A6B
(1604665771.803661) can0 4EC#FEFFFD7815CD0000
(1604665771.803958) can0 201#90AB0C0000000000
(1604665771.804410) can0 0D0#080B5A002600006B
(1604665771.804813) can0 4ED#00800005FFA60000
(1604665771.804934) can0 202#9055F40000000000
(1604665771.805432) can0 0D0#070841B700000000
(1604665771.805897) can0 0B0#01223F0500000000
(1604665771.806016) can0 201#90AB0C0000000000
(1604665771.806428) can0 0D0#060025001499006B
(1604665771.806841) can0 0B0#0200130588130088
(1604665771.806964) can0 202#9055F40000000000
(1604665771.807973) can0 201#900E0D0000000000
(1604665771.808086) can0 4EC#FF09FD4015F70000
(1604665771.808925) can0 202#90F2F30000000000
(1604665771.809293) can0 4ED#006C0004FFA50000
(1604665771.809962) can0 201#900E0D0000000000
(1604665771.810927) can0 202#90F2F30000000000
(1604665771.811965) can0 201#900E0D0000000000
(1604665771.812553) can0 4EC#FEEDFD7215F50000
(1604665771.812930) can0 202#90F2F30000000000
(1604665771.813763) can0 4ED#0063FFFDFFA30000
(1604665771.813964) can0 201#900E0D0000000000
(1604665771.814751) can0 0FF#94007D8700000000
(1604665771.814924) can0 202#90F2F30000000000
(1604665771.815964) can0 201#900E0D0000000000
(1604665771.816927) can0 202#90F2F30000000000
(1604665771.817048) can0 4EC#FF56FDDF160F0000
(1604665771.817973) can0 201#900E0D0000000000
(1604665771.818225) can0 4ED#007A0000FFAD0000
(1604665771.818927) can0 202#90F2F30000000000
(1604665771.819961) can0 201#900E0D0000000000
(1604665771.820431) can0 181#4A795402
(1604665771.820541) can0 0C0#020FD60000000000
(1604665771.820924) can0 202#90F2F30000000000
(1604665771.821504) can0 4EC#FF67FDC5164E0000
(1604665771.821568) can0 182#49D52E01
(1604665771.821682) can0 0C0#01137A137315CE32
(1604665771.821962) can0 201#900E0D0000000000
(1604665771.822442) can0 0C0#0000970154017704
(1604665771.822706) can0 4ED#007F0000FFB70000
(1604665771.822934) can0 202#90F2F30000000000
(1604665771.823411) can0 0D0#1501870192000A6B
(1604665771.823475) can0 181#49FD2D01
(1604665771.823574) can0 182#EBE73003
(1604665771.823963) can0 201#900E0D0000000000
(1604665771.824404) can0 0D0#080B5A002600006B
(1604665771.824925) can0 202#90F2F30000000000
(1604665771.825409) can0 0D0#07083EB800000000
(1604665771.825474) can0 181#EBA73003
(1604665771.825588) can0 182#8A80FA04
(1604665771.825657) can0 0AA#0500B80007
(1604665771.825795) can0 0AA#013C242090868B80
(1604665771.825958) can0 4EC#FF7FFDEB16A30000
(1604665771.826079) can0 201#900E0D0000000000
(1604665771.826435) can0 0D0#06002600151B006B
(1604665771.826926) can0 202#90F2F30000000000
(1604665771.827169) can0 4ED#00710000FFB30000
(1604665771.827400) can0 181#8A9D0504
(1604665771.827530) can0 182#F6A50105
(1604665771.827977) can0 201#900E0D0000000000
(1604665771.828929) can0 202#90F2F30000000000
(1604665771.829400) can0 181#F60B0205
(1604665771.829534) can0 182#A0DFF306
(1604665771.829599) can0 182#A820DF07
(1604665771.829965) can0 201#900E0D0000000000
(1604665771.830445) can0 4EC#FFECFE7817070000
(1604665771.830846) can0 0B0#01213F0500000000
(1604665771.830965) can0 202#90F2F30000000000
(1604665771.831390) can0 181#A0ED0C06
(1604665771.831456) can0 182#5FB3FF08
(1604665771.831679) can0 4ED#007FFFFCFF960000
(1604665771.831904) can0 0B0#0200130588130088
(1604665771.832039) can0 201#90AB0C0000000000
(1604665771.832390) can0 181#A8021E07
(1604665771.832931) can0 202#9055F40000000000
(1604665771.833965) can0 201#90AB0C0000000000
(1604665771.834427) can0 181#5F5D0008
(1604665771.834922) can0 4EC#0012FF0717290000
(1604665771.835047) can0 202#9055F40000000000
(1604665771.835962) can0 201#90AB0C0000000000
(1604665771.836132) can0 4ED#00780000FFAA0000
(1604665771.836929) can0 202#9055F40000000000
(1604665771.837963) can0 201#90AB0C0000000000
(1604665771.838941) can0 202#9055F40000000000
(1604665771.839390) can0 4EC#FFE7FF4617550000
(1604665771.839963) can0 201#90AB0C0000000000
(1604665771.840410) can0 0C0#020FFD0000000000
(1604665771.840598) can0 4ED#007BFFFCFFA40000
(1604665771.840929) can0 202#9055F40000000000
(1604665771.841406) can0 0C0#011380137A15DA32
(1604665771.841963) can0 201#90AB0C0000000000
(1604665771.842439) can0 0C0#00013D017E017704
(1604665771.842929) can0 202#9055F40000000000
(1604665771.843410) can0 0D0#1501FC0207000B6B
(1604665771.843857) can0 4EC#009FFFC517940000
(1604665771.843977) can0 201#90AB0C0000000000
(1604665771.844404) can0 0D0#080B5A002600006B
(1604665771.844925) can0 202#9055F40000000000
(1604665771.845073) can0 4ED#008D0000FF9D0000
(1604665771.845637) can0 0D0#070865AB00000000
(1604665771.845959) can0 201#90AB0C0000000000
(1604665771.846431) can0 0D0#0600270015E2006B
(1604665771.846926) can0 202#9055F40000000000
(1604665771.847962) can0 201#90AB0C0000000000
(1604665771.848330) can0 4EC#00C7FF93177B0000
(1604665771.848924) can0 202#9055F40000000000
(1604665771.849543) can0 4ED#007C0004FFA80000
(1604665771.849964) can0 201#90AB0C0000000000
(1604665771.850929) can0 202#9055F40000000000
(1604665771.851963) can0 201#90AB0C0000000000
(1604665771.852804) can0 4EC#0048FFEC173B0000
(1604665771.852927) can0 202#9055F40000000000
(1604665771.853960) can0 201#90AB0C0000000000
(1604665771.854089) can0 4ED#00780004FFAD0000
(1604665771.854928) can0 202#9055F40000000000
(1604665771.855903) can0 0B0#01203F0500000000
(1604665771.856019) can0 201#90AB0C0000000000
(1604665771.856844) can0 0B0#0200130588130088
(1604665771.856966) can0 202#9055F40000000000
(1604665771.857270) can0 4EC#0093002317550000
(1604665771.857965) can0 201#90490C0000000000
(1604665771.858481) can0 4ED#007B0005FF9A0000
(1604665771.858928) can0 202#90B7F40000000000
(1604665771.859964) can0 201#90490C0000000000
(1604665771.860434) can0 0C0#020FC90000000000
(1604665771.860925) can0 202#90B7F40000000000
(1604665771.861401) can0 0C0#01139A139E15EE32
(1604665771.861740) can0 4EC#00A6003317610000
(1604665771.861961) can0 201#90490C0000000000
(1604665771.862436) can0 0C0#0000E0019701D904
(1604665771.862931) can0 202#90B7F40000000000
(1604665771.863047) can0 4ED#007D0005FF9A0000
(1604665771.863410) can0 0D0#150272026C000B6B
(1604665771.863964) can0 201#90490C0000000000
(1604665771.864406) can0 0D0#080B5A002600006B
(1604665771.864926) can0 202#90B7F40000000000
(1604665771.865411) can0 0D0#0708A61500000000
(1604665771.865961) can0 201#90490C0000000000
(1604665771.866208) can0 4EC#0071003217310000
(1604665771.866431) can0 0D0#060028001624006B
(1604665771.866926) can0 202#90B7F40000000000
(1604665771.867415) can0 4ED#0078FFFEFF920000
(1604665771.867963) can0 201#90490C0000000000
(1604665771.868924) can0 202#90B7F40000000000
(1604665771.869973) can0 201#90490C0000000000
(1604665771.870697) can0 4EC#0077001C16E30000
(1604665771.870925) can0 202#90B7F40000000000
(1604665771.871460) can0 182#4AE65102
(1604665771.871904) can0 4ED#0064FFFBFF990000
(1604665771.872028) can0 201#90490C0000000000
(1604665771.872938) can0 202#90B7F40000000000
(1604665771.873963) can0 201#90490C0000000000
(1604665771.874928) can0 202#90B7F40000000000
(1604665771.875163) can0 4EC#008F002E168C0000
(1604665771.875965) can0 201#90490C0000000000
(1604665771.876374) can0 4ED#008B0001FF930000
(1604665771.876927) can0 202#90B7F40000000000
(1604665771.877964) can0 201#90490C0000000000
(1604665771.878926) can0 202#90B7F40000000000
(1604665771.879453) can0 182#A812DF07
(1604665771.879632) can0 4EC#001A002716710000
(1604665771.879964) can0 201#90490C0000000000
(1604665771.880411) can0 0C0#020FBC0000000000
(1604665771.880849) can0 0B0#01213F0500000000
(1604665771.880967) can0 202#90B7F40000000000
(1604665771.881089) can0 4ED#0098000AFF9D0000
(1604665771.881410) can0 0C0#0113A013B415EC32
(1604665771.881909) can0 0B0#0200130588130088
(1604665771.882023) can0 201#90AB0C0000000000
(1604665771.882319) can0 181#A88B1D07
(1604665771.882457) can0 0C0#0000D9015E019F04
(1604665771.882947) can0 202#9055F40000000000
(1604665771.883415) can0 0D0#150062006D000B6B
(1604665771.883592) can0 0AA#0A0A150B6607BA
(1604665771.883969) can0 201#90AB0C0000000000
(1604665771.884147) can0 4EC#FFDA001E16790000
(1604665771.884411) can0 0D0#080B5B002700006B
(1604665771.884933) can0 202#9055F40000000000
(1604665771.885333) can0 4ED#00880004FF9D0000
(1604665771.885451) can0 0D0#070886A000000000
(1604665771.885973) can0 201#90AB0C0000000000
(1604665771.886455) can0 0D0#0600270015D3006B
(1604665771.886927) can0 202#9055F40000000000
(1604665771.887959) can0 201#90AB0C0000000000
(1604665771.888579) can0 4EC#FFCC006F166F0000
(1604665771.888924) can0 202#9055F40000000000
(1604665771.889795) can0 4ED#00800005FF9A0000
(1604665771.889961) can0 201#90AB0C0000000000
(1604665771.890927) can0 202#9055F40000000000
(1604665771.891960) can0 201#90AB0C0000000000
(1604665771.892926) can0 202#9055F40000000000
(1604665771.893050) can0 4EC#FFE300A0160C0000
(1604665771.893960) can0 201#90AB0C0000000000
(1604665771.894267) can0 4ED#00680005FF940000
(1604665771.894840) can0 0AA#0500AC0007
(1604665771.894952) can0 0AA#013C41B7906E8C53
(1604665771.895077) can0 202#9055F40000000000
(1604665771.895962) can0 201#90AB0C0000000000
(1604665771.896927) can0 202#9055F40000000000
(1604665771.897522) can0 4EC#FF4D00A116070000
(1604665771.897959) can0 201#90AB0C0000000000
(1604665771.898737) can0 4ED#006D0006FF9F0000
(1604665771.898929) can0 202#9055F40000000000
(1604665771.899966) can0 201#90AB0C0000000000
(1604665771.900422) can0 0C0#020FBC0000000000
(1604665771.900930) can0 202#9055F40000000000
(1604665771.901410) can0 0C0#01138313C815CE32
(1604665771.901964) can0 201#90AB0C0000000000
(1604665771.902082) can0 4EC#FF84005C16220000
(1604665771.902444) can0 0C0#000124019001C504
(1604665771.902930) can0 202#9055F40000000000
(1604665771.903201) can0 4ED#008A000BFFA10000
(1604665771.903442) can0 0D0#1500D700E3000B6B
(1604665771.903964) can0 201#90AB0C0000000000
(1604665771.904407) can0 0D0#080B5B002700006B
(1604665771.904930) can0 202#9055F40000000000
(1604665771.905464) can0 0D0#0708971A00000000
(1604665771.905906) can0 0B0#01213F0500000000
(1604665771.906023) can0 201#90AB0C0000000000
(1604665771.906465) can0 4EC#FF4CFFAB16230000
(1604665771.906593) can0 0D0#0600270015F9006B
(1604665771.906844) can0 0B0#0200130588130088
(1604665771.906909) can0 0AA#0500AF0007
(1604665771.907052) can0 0AA#013C29EA90488BC0
(1604665771.907172) can0 202#9055F40000000000
(1604665771.907675) can0 4ED#00800000FFA80000
(1604665771.907964) can0 201#90AB0C0000000000
(1604665771.908926) can0 202#9055F40000000000
(1604665771.909963) can0 201#90AB0C0000000000
(1604665771.910927) can0 202#9055F40000000000
(1604665771.911040) can0 4EC#FF5EFF3515FB0000
(1604665771.911965) can0 201#90AB0C0000000000
(1604665771.912145) can0 4ED#00720000FFA10000
(1604665771.912933) can0 202#9055F40000000000
(1604665771.913972) can0 201#90AB0C0000000000
(1604665771.914932) can0 202#9055F40000000000
(1604665771.915405) can0 4EC#FF66FF2215AE0000
(1604665771.915962) can0 201#90AB0C0000000000
(1604665771.916617) can0 4ED#006F0004FFA90000
(1604665771.916929) can0 202#9055F40000000000
(1604665771.917963) can0 201#90AB0C0000000000
(1604665771.918928) can0 202#9055F40000000000
(1604665771.919887) can0 4EC#FF57FEC3159C0000
(1604665771.920010) can0 201#90AB0C0000000000
(1604665771.920255) can0 181#4A7A5402
(1604665771.920407) can0 0C0#02100A0000000000
(1604665771.920931) can0 202#9055F40000000000
(1604665771.921099) can0 4ED#006FFFFEFFA80000
(1604665771.921332) can0 182#49D52E01
(1604665771.921446) can0 0C0#01137A139815C932
(1604665771.921964) can0 201#90AB0C0000000000
(1604665771.922443) can0 0C0#00014101AE018404
(1604665771.922935) can0 202#9055F40000000000
(1604665771.923246) can0 181#49FC2D01
(1604665771.923310) can0 182#EB993003
(1604665771.923450) can0 0D0#15013C0146000A6B
(1604665771.923966) can0 201#90AB0C0000000000
(1604665771.924365) can0 4EC#FF39FDE315890000
(1604665771.924481) can0 0D0#080B5B002700006B
(1604665771.924931) can0 202#9055F40000000000
(1604665771.925241) can0 181#EBFA2F03
(1604665771.925305) can0 182#8A9EFA04
(1604665771.925457) can0 0D0#070877A500000000
(1604665771.925573) can0 4ED#0073FFFDFF9D0000
(1604665771.925964) can0 201#90AB0C0000000000
(1604665771.926431) can0 0D0#0600270015AD006B
(1604665771.926930) can0 202#9055F40000000000
(1604665771.927242) can0 181#8AED0404
(1604665771.927372) can0 182#F6860105
(1604665771.927964) can0 201#90AB0C0000000000
(1604665771.928845) can0 4EC#FF44FD6615820000
(1604665771.928967) can0 202#9055F40000000000
(1604665771.929239) can0 181#F6A30105
(1604665771.929369) can0 182#A05AF406
(1604665771.929434) can0 182#A846DF07
(1604665771.929963) can0 201#90AB0C0000000000
(1604665771.930084) can0 4ED#00700007FFA10000
(1604665771.930846) can0 0B0#01223F0500000000
(1604665771.930967) can0 202#9055F40000000000
(1604665771.931236) can0 181#A09B0C06
(1604665771.931374) can0 182#5FB9FF08
(1604665771.931908) can0 0B0#0200130588130088
(1604665771.932027) can0 201#900E0D0000000000
(1604665771.932227) can0 181#A8F71D07
(1604665771.932925) can0 202#90F2F30000000000
(1604665771.933321) can0 4EC#FF4CFD2A15A00000
(1604665771.933967) can0 201#900E0D0000000000
(1604665771.934239) can0 181#5F500008
(1604665771.934535) can0 4ED#0078FFFFFF940000
(1604665771.934925) can0 202#90F2F30000000000
(1604665771.935967) can0 201#900E0D0000000000
(1604665771.936928) can0 202#90F2F30000000000
(1604665771.937805) can0 4EC#FF61FD1C158C0000
(1604665771.937966) can0 201#900E0D0000000000
(1604665771.938929) can0 202#90F2F30000000000
(1604665771.939045) can0 4ED#00660005FFA30000
(1604665771.939966) can0 201#900E0D0000000000
(1604665771.940411) can0 0C0#020FBC0000000000
(1604665771.940926) can0 202#90F2F30000000000
(1604665771.941407) can0 0C0#01137B137E15BE32
(1604665771.941968) can0 201#900E0D0000000000
(1604665771.942271) can0 4EC#FF0CFD7815A80000
(1604665771.942438) can0 0C0#000119014D018304
(1604665771.942928) can0 202#90F2F30000000000
(1604665771.943407) can0 0D0#1501B001BB000B6B
(1604665771.943528) can0 4ED#006B0001FFA20000
(1604665771.943964) can0 201#900E0D0000000000
(1604665771.944411) can0 0D0#080B5B002700006B
(1604665771.944926) can0 202#90F2F30000000000
(1604665771.945410) can0 0D0#07087AA400000000
(1604665771.945969) can0 201#900E0D0000000000
(1604665771.946035) can0 0AA#0500B90007
(1604665771.946175) can0 0AA#013C100E8FCB8BFD
(1604665771.946433) can0 0D0#0600270015B8006B
(1604665771.946744) can0 4EC#FF08FE2F15B70000
(1604665771.946928) can0 202#90F2F30000000000
(1604665771.947954) can0 4ED#0075FFFFFFB30000
(1604665771.948092) can0 201#900E0D0000000000
(1604665771.948928) can0 202#90F2F30000000000
(1604665771.949967) can0 201#900E0D0000000000
(1604665771.950929) can0 202#90F2F30000000000
(1604665771.951209) can0 4EC#FF79FF0B15A80000
(1604665771.951972) can0 201#900E0D0000000000
(1604665771.952424) can0 4ED#0087FFFCFFB00000
(1604665771.952928) can0 202#90F2F30000000000
(1604665771.953967) can0 201#900E0D0000000000
(1604665771.954929) can0 202#90F2F30000000000
(1604665771.955693) can0 4EC#FF78FF6815D90000
(1604665771.955906) can0 0B0#01223E0500000000
(1604665771.956026) can0 201#900E0D0000000000
(1604665771.956845) can0 0B0#0200130588130088
(1604665771.956964) can0 202#90F2F30000000000
(1604665771.957087) can0 4ED#00710005FFB60000
(1604665771.957969) can0 201#900E0D0000000000
(1604665771.958928) can0 202#90F2F30000000000
(1604665771.959966) can0 201#900E0D0000000000
(1604665771.960165) can0 4EC#FF8CFFB415E10000
(1604665771.960439) can0 0C0#020F3A0000000000
(1604665771.960927) can0 202#90F2F30000000000
(1604665771.961369) can0 4ED#006FFFFAFFB30000
(1604665771.961505) can0 0C0#011374138415C832
(1604665771.961966) can0 201#900E0D0000000000
(1604665771.962447) can0 0C0#0000D10189017704
(1604665771.962928) can0 202#90F2F30000000000
(1604665771.963411) can0 0D0#1502250220000C6B
(1604665771.963965) can0 201#900E0D0000000000
(1604665771.964406) can0 0D0#080B5B002700006B
(1604665771.964636) can0 4EC#FF8BFFFE15B60000
(1604665771.964925) can0 202#90F2F30000000000
(1604665771.965409) can0 0D0#0708E68000000000
(1604665771.965849) can0 4ED#00730006FFA90000
(1604665771.965970) can0 201#900E0D0000000000
(1604665771.966437) can0 0D0#0600290016C8006B
(1604665771.966772) can0 0FF#94007D8800000000
(1604665771.966928) can0 202#90F2F30000000000
(1604665771.967968) can0 201#900E0D0000000000
(1604665771.968927) can0 202#90F2F30000000000
(1604665771.969113) can0 4EC#FF36FF9815E70000
(1604665771.969966) can0 201#900E0D0000000000
(1604665771.970327) can0 4ED#005F0000FFAC0000
(1604665771.970928) can0 202#90F2F30000000000
(1604665771.971252) can0 182#4AE95102
(1604665771.971965) can0 201#900E0D0000000000
(1604665771.972938) can0 202#90F2F30000000000
(1604665771.973581) can0 4EC#FFA5FFB016150000
(1604665771.973966) can0 201#900E0D0000000000
(1604665771.974795) can0 4ED#006E0000FFA90000
(1604665771.974929) can0 202#90F2F30000000000
(1604665771.975968) can0 201#900E0D0000000000
(1604665771.976928) can0 202#90F2F30000000000
(1604665771.977966) can0 201#900E0D0000000000
(1604665771.978087) can0 4EC#FF9C002C15FA0000
(1604665771.978929) can0 202#90F2F30000000000
(1604665771.979279) can0 4ED#007C0006FFA40000
(1604665771.979347) can0 182#A83BDF07
(1604665771.979966) can0 201#900E0D0000000000
(1604665771.980415) can0 0C0#020F2D0000000000
(1604665771.980847) can0 0B0#01213E0500000000
(1604665771.980969) can0 202#90F2F30000000000
(1604665771.981412) can0 0C0#01137B13AB15C332
(1604665771.981900) can0 0B0#0200130588130088
(1604665771.982030) can0 201#900E0D0000000000
(1604665771.982204) can0 181#A83D1E07
(1604665771.982442) can0 0C0#000114016E014E04
(1604665771.982508) can0 4EC#FF72005315E50000
(1604665771.982929) can0 202#90F2F30000000000
(1604665771.983414) can0 0D0#1500150020000B6B
(1604665771.983734) can0 4ED#00700003FFA90000
(1604665771.983965) can0 201#90AB0C0000000000
(1604665771.984405) can0 0D0#080B5C002800006B
(1604665771.984930) can0 202#9055F40000000000
(1604665771.985408) can0 0D0#0708AD9300000000
(1604665771.985965) can0 201#90AB0C0000000000
(1604665771.986031) can0 0AA#0500B80007
(1604665771.986174) can0 0AA#013C155290448C2B
(1604665771.986442) can0 0D0#060028001637006B
(1604665771.986929) can0 202#9055F40000000000
(1604665771.987051) can0 4EC#FF85007015CC0000
(1604665771.987966) can0 201#90AB0C0000000000
(1604665771.988202) can0 4ED#007A0002FFA20000
(1604665771.988931) can0 202#9055F40000000000
(1604665771.989966) can0 201#90AB0C0000000000
(1604665771.990932) can0 202#9055F40000000000
(1604665771.991464) can0 4EC#FF90004A15C10000
(1604665771.991964) can0 201#90AB0C0000000000
(1604665771.992675) can0 4ED#00840003FF940000
(1604665771.992929) can0 202#9055F40000000000
(1604665771.993965) can0 201#90AB0C0000000000
(1604665771.994934) can0 202#9055F40000000000
(1604665771.995932) can0 4EC#FF58FFC515D40000
(1604665771.996053) can0 201#90AB0C0000000000
(1604665771.996930) can0 202#9055F40000000000
(1604665771.997143) can0 4ED#00830000FF9B0000
(1604665771.997964) can0 201#90AB0C0000000000
(1604665771.998930) can0 202#9055F40000000000
(1604665771.999964) can0 201#90AB0C0000000000
(1604665772.000437) can0 4EC#FF88FFDF15F80000
(1604665772.000545) can0 0C0#020F7B0000000000
(1604665772.000932) can0 202#9055F40000000000
(1604665772.001411) can0 0C0#01137B13BA15CC32
(1604665772.001652) can0 4ED#00790006FF980000
(1604665772.001965) can0 201#90AB0C0000000000
(1604665772.002464) can0 0C0#00010601D401BF04
(1604665772.002935) can0 202#9055F40000000000
(1604665772.003423) can0 0D0#1500890084000B6B
(1604665772.003972) can0 201#90AB0C0000000000
(1604665772.004417) can0 0D0#080B5C002800006B
(1604665772.004906) can0 4EC#FFBBFFF715CB0000
(1604665772.005019) can0 202#9055F40000000000
(1604665772.005412) can0 0D0#0708959B00000000
(1604665772.005916) can0 0B0#01203F0500000000
(1604665772.006033) can0 201#90AB0C0000000000
